(1677654882.337446) can1 191#010090A1410030
(1677654882.337487) can1 244#000000010E
(1677654882.337500) can1 18E#00005C
(1677654882.337509) can1 133#0000000098
(1677654882.337518) can1 136#000200000000001B
(1677654882.337527) can1 13A#0000000000000019
(1677654882.337535) can1 13F#000000050000001F
(1677654882.337677) can1 164#0000C01AA8000031
(1677654882.338814) can1 17C#0000000010000012
(1677654882.338864) can1 183#0000000E0000101C
(1677654882.338880) can1 143#6B6B00D1
(1677654882.338893) can1 095#800007F400000008
(1677654882.338907) can1 039#001B
(1677654882.338921) can1 166#D0320018
(1677654882.340370) can1 158#0000000000000019
(1677654882.340457) can1 161#000005500108001C
(1677654882.340489) can1 191#010090A1410003
(1677654882.343529) can1 164#0000C01AA8000004
(1677654882.343568) can1 133#00000000A7
(1677654882.345246) can1 136#000200000000002A
(1677654882.347046) can1 13A#0000000000000028
(1677654882.347105) can1 244#0000000158
(1677654882.347112) can1 13F#000000050000002E
(1677654882.347117) can1 17C#0000000010000021
(1677654882.348669) can1 18E#00006B
(1677654882.348704) can1 1CF#80050000001E
(1677654882.348726) can1 1DC#0200001B
(1677654882.348733) can1 183#0000000A0000102F
(1677654882.348738) can1 143#6B6B00E0
(1677654882.348744) can1 095#800007F400000017
(1677654882.348750) can1 1A4#000000080000003E
(1677654882.348756) can1 1AA#7FFF00000000673F
(1677654882.348761) can1 1B0#000F0000000175
(1677654882.350438) can1 1D0#000000000000000A
(1677654882.350499) can1 166#D0320027
(1677654882.353691) can1 158#0000000000000028
(1677654882.353726) can1 161#000005500108002B
(1677654882.353730) can1 191#010090A1410012
(1677654882.353732) can1 164#0000C01AA8000013
(1677654882.355209) can1 133#00000000B6
(1677654882.355243) can1 136#0002000000000039
(1677654882.357091) can1 13A#0000000000000037
(1677654882.357145) can1 13F#000000050000003D
(1677654882.357150) can1 17C#0000000010000030
(1677654882.357155) can1 18E#00007A
(1677654882.357160) can1 294#040B0002CF5A001D
(1677654882.358400) can1 21E#03E83745220610
(1677654882.358436) can1 244#000000019E
(1677654882.358440) can1 039#002A
(1677654882.358444) can1 183#0000000F00001039
(1677654882.358447) can1 143#6B6B00FF
(1677654882.358450) can1 095#800007F400000026
(1677654882.359516) can1 166#D0320036
(1677654882.361159) can1 158#0000000000000037
(1677654882.361208) can1 161#000005500108003A
(1677654882.362923) can1 191#010090A1410021
(1677654882.365925) can1 164#0000C01AA8000022
(1677654882.367658) can1 133#0000000089
(1677654882.367683) can1 136#000200000000000C
(1677654882.367690) can1 13A#000000000000000A
(1677654882.367695) can1 13F#0000000500000000
(1677654882.367702) can1 17C#0000000010000003
(1677654882.367708) can1 18E#00004D
(1677654882.368878) can1 1CF#80050000002D
(1677654882.368922) can1 1DC#0200002A
(1677654882.368927) can1 183#0000001300001007
(1677654882.368932) can1 143#6B6B00C2
(1677654882.368936) can1 244#0000000138
(1677654882.368941) can1 333#0000000000003C
(1677654882.370438) can1 095#800007F400000035
(1677654882.370457) can1 1A4#0000000800000001
(1677654882.370501) can1 1AA#7FFF000000006801
(1677654882.372183) can1 1B0#000F0000000148
(1677654882.373923) can1 1D0#000000000000000A
(1677654882.373976) can1 166#D0320009
(1677654882.373982) can1 158#000000000000000A
(1677654882.373987) can1 161#000005500108000D
(1677654882.373991) can1 191#010090A1410030
(1677654882.375130) can1 133#0000000098
(1677654882.376830) can1 136#000200000000001B
(1677654882.376880) can1 13A#0000000000000019
(1677654882.376886) can1 13F#000000050000001F
(1677654882.378532) can1 711#0357332100000000
(1677654882.378576) can1 911#069873493201F4AA
(1677654882.378581) can1 164#0000C01AA8000031
(1677654882.378586) can1 17C#0000000010000012
(1677654882.378590) can1 18E#00005C
(1677654882.378594) can1 183#0000000E0000101C
(1677654882.378599) can1 143#6B6B00D1
(1677654882.379749) can1 244#0000000178
(1677654882.379783) can1 095#800007F400000008
(1677654882.381290) can1 166#D0320018
(1677654882.381297) can1 158#0000000000000019
(1677654882.381351) can1 161#000005500108001C
(1677654882.383008) can1 191#010090A1410003
(1677654882.386623) can1 1CF#80050000000F
(1677654882.386676) can1 1DC#0200000C
(1677654882.386681) can1 320#000003
(1677654882.386718) can1 324#7465000000000E0B
(1677654882.387760) can1 183#0000000600001005
(1677654882.387789) can1 37C#FD00FD00097F000B
(1677654882.387793) can1 039#002A
(1677654882.387795) can1 001#0210010000000000
(1677654882.387798) can1 143#6B6B00C2
(1677654882.389381) can1 244#0000000129
(1677654882.389446) can1 095#800007F400000035
(1677654882.389453) can1 1A4#000000080000002F
(1677654882.389459) can1 1AA#7FFF000000006720
(1677654882.389463) can1 1B0#000F0000000166
(1677654882.390876) can1 1D0#000000000000000A
(1677654882.390941) can1 166#D0320009
(1677654882.390947) can1 158#000000000000000A
(1677654882.392065) can1 161#000005500108000D
(1677654882.392647) can1 191#010010A1410038
(1677654882.392718) can1 133#0000000098
(1677654882.394357) can1 136#000200000000001B
(1677654882.394395) can1 13A#0000000000000019
(1677654882.394398) can1 13F#000000050000001F
(1677654882.394401) can1 164#0000C01AA8000031
(1677654882.395637) can1 17C#0000000010000012
(1677654882.396869) can1 18E#00005C
(1677654882.396913) can1 183#0000000C0000101E
(1677654882.396917) can1 143#6B6B00D1
(1677654882.398536) can1 002#0210010000000000
(1677654882.398605) can1 095#800007F400000008
(1677654882.398610) can1 244#000000012E
(1677654882.398615) can1 039#0039
(1677654882.398619) can1 166#D0320018
(1677654882.398624) can1 158#0000000000000019
(1677654882.398629) can1 161#000005500108001C
(1677654882.401137) can1 191#010010A141000B
(1677654882.401207) can1 164#0000C01AA8000004
(1677654882.403322) can1 133#00000000A7
(1677654882.403887) can1 136#000200000000002A
(1677654882.403951) can1 13A#0000000000000028
(1677654882.405173) can1 13F#000000050000002E
(1677654882.406878) can1 17C#0000000010000021
(1677654882.406937) can1 18E#00006B
(1677654882.406943) can1 1CF#80050000001E
(1677654882.408332) can1 1DC#0200001B
(1677654882.408370) can1 183#0000000900001020
(1677654882.408374) can1 143#6B6B00E0
(1677654882.408377) can1 003#0210010000000000
(1677654882.408379) can1 095#800007F400000017
(1677654882.408382) can1 1A4#000000080000003E
(1677654882.408385) can1 1AA#7FFF00000000673F
(1677654882.409612) can1 1B0#000F0000000175
(1677654882.409684) can1 244#00000001D7
(1677654882.409688) can1 1D0#000000000000000A
(1677654882.409692) can1 166#D0320027
(1677654882.409695) can1 039#000C
(1677654882.410987) can1 158#0000000000000028
(1677654882.411022) can1 161#000005500108002B
(1677654882.412922) can1 191#010010A141001A
(1677654882.412957) can1 133#00000000B6
(1677654882.414232) can1 136#0002000000000039
(1677654882.414286) can1 13A#0000000000000037
(1677654882.414297) can1 13F#000000050000003D
(1677654882.414307) can1 164#0000C01AA8000013
(1677654882.414315) can1 17C#0000000010000030
(1677654882.415937) can1 18E#00007A
(1677654882.417230) can1 294#040B0002CF5A001D
(1677654882.417296) can1 21E#03E83745220610
(1677654882.417309) can1 309#0000000000000093
(1677654882.417318) can1 183#0000000E0000103A
(1677654882.417331) can1 004#0210010000000000
(1677654882.418482) can1 143#6B6B00FF
(1677654882.418538) can1 095#800007F400000026
(1677654882.418549) can1 305#8017
(1677654882.418559) can1 166#D0320036
(1677654882.418568) can1 244#000000018E
(1677654882.420033) can1 158#0000000000000037
(1677654882.420128) can1 161#000005500108003A
(1677654882.421780) can1 191#010010A1410029
(1677654882.421839) can1 164#0000C01AA8000022
(1677654882.423312) can1 133#0000000089
(1677654882.425084) can1 136#000200000000000C
(1677654882.426151) can1 13A#000000000000000A
(1677654882.426248) can1 13F#0000000500000000
(1677654882.427721) can1 17C#0000000010000003
(1677654882.427771) can1 18E#00004D
(1677654882.427783) can1 1CF#80050000002D
(1677654882.427792) can1 1DC#0200002A
(1677654882.427802) can1 183#0000000A00001001
(1677654882.427811) can1 143#6B6B00C2
(1677654882.427820) can1 005#0210010000000000
(1677654882.429145) can1 039#001B
(1677654882.429238) can1 095#800007F400000035
(1677654882.429263) can1 1A4#0000000800000001
(1677654882.429286) can1 1AA#7FFF000000006801
(1677654882.429305) can1 1B0#000F0000000148
(1677654882.430663) can1 1D0#000000000000000A
(1677654882.430753) can1 166#D0320009
(1677654882.433438) can1 158#000000000000000A
(1677654882.433533) can1 161#000005500108000D
(1677654882.433555) can1 244#00000001D3
(1677654882.433574) can1 191#010010A1410038
(1677654882.434903) can1 133#0000000098
(1677654882.436225) can1 136#000200000000001B
(1677654882.436405) can1 13A#0000000000000019
(1677654882.437533) can1 13F#000000050000001F
(1677654882.437583) can1 164#0000C01AA8000031
(1677654882.437594) can1 17C#0000000010000012
(1677654882.437604) can1 18E#00005C
(1677654882.437613) can1 183#0000000700001013
(1677654882.437622) can1 143#6B6B00D1
(1677654882.439268) can1 006#0210010000000000
(1677654882.439352) can1 095#800007F400000008
(1677654882.439424) can1 039#002A
(1677654882.439442) can1 166#D0320018
(1677654882.439459) can1 158#0000000000000019
(1677654882.439521) can1 161#000005500108001C
(1677654882.440873) can1 191#010010A141000B
(1677654882.440910) can1 133#00000000A7
(1677654882.443875) can1 136#000200000000002A
(1677654882.445567) can1 13A#0000000000000028
(1677654882.447056) can1 13F#000000050000002E
(1677654882.447095) can1 244#00000001CE
(1677654882.447099) can1 164#0000C01AA8000004
(1677654882.447101) can1 17C#0000000010000021
(1677654882.447126) can1 18E#00006B
(1677654882.448419) can1 1CF#80050000003C
(1677654882.448456) can1 1DC#02000039
(1677654882.448459) can1 183#0000000500001024
(1677654882.448462) can1 143#6B6B00E0
(1677654882.448464) can1 007#0210010000000000
(1677654882.448467) can1 095#800007F400000017
(1677654882.449751) can1 1A4#0000000800000010
(1677654882.449853) can1 1AA#7FFF000000006810
(1677654882.449912) can1 1B0#000F0000000157
(1677654882.451158) can1 1D0#000000000000000A
(1677654882.454279) can1 166#D0320027
(1677654882.454365) can1 158#0000000000000028
(1677654882.454375) can1 161#000005500108002B
(1677654882.454390) can1 191#010010A141001A
(1677654882.454394) can1 133#00000000B6
(1677654882.454400) can1 136#0002000000000039
(1677654882.455791) can1 13A#0000000000000037
(1677654882.457601) can1 13F#000000050000003D
(1677654882.457684) can1 164#0000C01AA8000013
(1677654882.457718) can1 17C#0000000010000030
(1677654882.457724) can1 039#0039
(1677654882.457729) can1 18E#00007A
(1677654882.457753) can1 244#000000014A
(1677654882.457785) can1 294#040B0002CF5A002C
(1677654882.458055) can1 21E#03E8374522062F
(1677654882.459116) can1 183#0000000300001035
(1677654882.459196) can1 143#6B6B00FF
(1677654882.459202) can1 008#0210010000000000
(1677654882.459207) can1 095#800007F400000026
(1677654882.459211) can1 166#D0320036
(1677654882.460713) can1 158#0000000000000037
(1677654882.460761) can1 161#000005500108003A
(1677654882.463496) can1 191#010010A1410029
(1677654882.465277) can1 133#0000000089
(1677654882.466677) can1 136#000200000000000C
(1677654882.466749) can1 13A#000000000000000A
(1677654882.468104) can1 13F#0000000500000000
(1677654882.468191) can1 164#0000C01AA8000022
(1677654882.468226) can1 17C#0000000010000003
(1677654882.468232) can1 18E#00004D
(1677654882.468237) can1 1CF#80050000000F
(1677654882.468266) can1 1DC#0200000C
(1677654882.468272) can1 244#00000001DE
(1677654882.469694) can1 183#0000000A00001001
(1677654882.469777) can1 143#6B6B00C2
(1677654882.469784) can1 039#000C
(1677654882.469789) can1 333#0000000000001E
(1677654882.469793) can1 009#0210010000000000
(1677654882.471069) can1 095#800007F400000035
(1677654882.473811) can1 1A4#000000080000002F
(1677654882.473876) can1 1AA#7FFF000000006720
(1677654882.473882) can1 1B0#000F0000000166
(1677654882.473885) can1 1D0#000000000000000A
(1677654882.473888) can1 166#D0320009
(1677654882.474024) can1 158#000000000000000A
(1677654882.476804) can1 161#000005500108000D
(1677654882.476894) can1 191#010010A1410038
(1677654882.476927) can1 133#0000000098
(1677654882.476932) can1 136#000200000000001B
(1677654882.478150) can1 13A#0000000000000019
(1677654882.478233) can1 13F#000000050000001F
(1677654882.478242) can1 164#0000C01AA8000031
(1677654882.478247) can1 17C#0000000010000012
(1677654882.478252) can1 18E#00005C
(1677654882.478256) can1 183#0000000700001013
(1677654882.479782) can1 244#00000001C7
(1677654882.481138) can1 143#6B6B00D1
(1677654882.481202) can1 095#800007F400000008
(1677654882.483062) can1 00A#0210010000000000
(1677654882.483128) can1 166#D0320018
(1677654882.485489) can1 158#0000000000000019
(1677654882.485796) can1 161#000005500108001C
(1677654882.487278) can1 191#010010A141000B
(1677654882.487396) can1 133#00000000A7
(1677654882.487421) can1 136#000200000000002A
(1677654882.487424) can1 13A#0000000000000028
(1677654882.487427) can1 13F#000000050000002E
(1677654882.488728) can1 164#0000C01AA8000004
(1677654882.488795) can1 17C#0000000010000021
(1677654882.488804) can1 18E#00006B
(1677654882.488807) can1 1CF#80050000001E
(1677654882.488810) can1 1DC#0200001B
(1677654882.488812) can1 320#000012
(1677654882.488814) can1 324#7465000000000E1A
(1677654882.490098) can1 37C#FD00FD00097F001A
(1677654882.491675) can1 183#0000000500001024
(1677654882.491709) can1 40C#0236323239533039
(1677654882.493092) can1 454#23EF36
(1677654882.493182) can1 143#6B6B00E0
(1677654882.494854) can1 244#0000000116
(1677654882.494954) can1 095#800007F400000017
(1677654882.494960) can1 039#001B
(1677654882.494964) can1 00B#0210010000000000
(1677654882.496496) can1 1A4#000000080000003E
(1677654882.496572) can1 1AA#7FFF00000000673F
(1677654882.496576) can1 1B0#000F0000000175
(1677654882.497984) can1 1D0#000000000000000A
(1677654882.498059) can1 166#D0320027
(1677654882.498066) can1 158#0000000000000028
(1677654882.498072) can1 161#000005500108002B
(1677654882.498077) can1 191#010010A141001A
(1677654882.498081) can1 133#00000000B6
(1677654882.498107) can1 136#0002000000000039
(1677654882.499583) can1 13A#0000000000000037
(1677654882.499674) can1 13F#000000050000003D
(1677654882.499681) can1 164#0000C01AA8000013
(1677654882.499686) can1 17C#0000000010000030
(1677654882.501307) can1 18E#00007A
(1677654882.501381) can1 294#040B0002CF5A003B
(1677654882.502897) can1 21E#03E8374522063E
(1677654882.506051) can1 183#0000000B0000103D
(1677654882.507648) can1 143#6B6B00FF
(1677654882.507673) can1 244#0000000173
(1677654882.507742) can1 095#800007F400000026
(1677654882.507749) can1 00C#0210010000000000
(1677654882.507755) can1 166#D0320036
(1677654882.507761) can1 158#0000000000000037
(1677654882.507767) can1 161#000005500108003A
(1677654882.507771) can1 191#010010A1410029
(1677654882.509299) can1 164#0000C01AA8000022
(1677654882.509382) can1 133#0000000089
(1677654882.509387) can1 136#000200000000000C
(1677654882.509392) can1 13A#000000000000000A
(1677654882.509396) can1 13F#0000000500000000
(1677654882.509400) can1 17C#0000000010000003
(1677654882.509404) can1 18E#00004D
(1677654882.509408) can1 1CF#80050000002D
(1677654882.511309) can1 1DC#0200002A
(1677654882.511350) can1 183#0000000800001003
(1677654882.511353) can1 143#6B6B00C2
(1677654882.511355) can1 095#800007F400000035
(1677654882.511357) can1 039#002A
(1677654882.511359) can1 1A4#0000000800000001
(1677654882.514210) can1 1AA#7FFF000000006801
(1677654882.514318) can1 1B0#000F0000000148
(1677654882.514323) can1 1D0#000000000000000A
(1677654882.514330) can1 244#0000000177
(1677654882.514334) can1 00D#0210010000000000
(1677654882.515756) can1 166#D0320009
(1677654882.517479) can1 158#000000000000000A
(1677654882.517553) can1 161#000005500108000D
(1677654882.517558) can1 191#010010A1410038
(1677654882.517562) can1 133#0000000098
(1677654882.517566) can1 136#000200000000001B
(1677654882.517570) can1 13A#0000000000000019
(1677654882.518544) can1 13F#000000050000001F
(1677654882.518964) can1 164#0000C01AA9000030
(1677654882.519042) can1 17C#0000000010000012
(1677654882.519050) can1 18E#00005C
(1677654882.519056) can1 309#00000000000000A2
(1677654882.521910) can1 428#01040000521C01
(1677654882.521990) can1 405#000004000000000B
(1677654882.521995) can1 183#0000000600001014
(1677654882.523470) can1 143#6B6B00D1
(1677654882.526624) can1 095#800007F400000008
(1677654882.526711) can1 00E#0210010000000000
(1677654882.526718) can1 166#D0320018
(1677654882.527768) can1 305#8026
(1677654882.527827) can1 158#0000000000000019
(1677654882.527831) can1 161#000005500108001C
(1677654882.527835) can1 191#010010A141000B
(1677654882.527837) can1 164#0000C01AA8000004
(1677654882.529262) can1 133#00000000A7
(1677654882.529324) can1 136#000200000000002A
(1677654882.529346) can1 13A#0000000000000028
(1677654882.529352) can1 13F#000000050000002E
(1677654882.529358) can1 17C#0000000010000021
(1677654882.529363) can1 18E#00006B
(1677654882.530979) can1 1CF#80050000003C
(1677654882.531053) can1 1DC#02000039
(1677654882.534178) can1 183#0000000C0000102D
(1677654882.534253) can1 244#0000000135
(1677654882.534260) can1 143#6B6B00E0
(1677654882.534265) can1 095#800007F400000017
(1677654882.534270) can1 1A4#0000000800000010
(1677654882.535743) can1 1AA#7FFF000000006810
(1677654882.537443) can1 1B0#000F0000000157
(1677654882.537515) can1 039#0039
(1677654882.537522) can1 1D0#000000000000000A
(1677654882.537526) can1 166#D0320027
(1677654882.537531) can1 00F#0210010000000000
(1677654882.537536) can1 158#0000000000000028
(1677654882.539180) can1 161#000005500108002B
(1677654882.539254) can1 191#010010A141001A
(1677654882.539260) can1 133#00000000B6
(1677654882.539265) can1 136#0002000000000039
(1677654882.539270) can1 13A#0000000000000037
(1677654882.539321) can1 13F#000000050000003D
(1677654882.539327) can1 164#0000C01AA8000013
(1677654882.539332) can1 17C#0000000010000030
(1677654882.540234) can1 18E#00007A
(1677654882.540707) can1 294#040B0002CF5A000E
(1677654882.540783) can1 21E#03E83745220601
(1677654882.540790) can1 183#000000090000103F
(1677654882.540795) can1 244#00000001F6
(1677654882.542793) can1 143#6B6B00FF
(1677654882.545838) can1 095#800007F400000026
(1677654882.547483) can1 010#0210010000000000
(1677654882.547549) can1 166#D0320036
(1677654882.547553) can1 158#0000000000000037
(1677654882.547556) can1 161#000005500108003A
(1677654882.547559) can1 191#010010A1410029
(1677654882.547562) can1 164#0000C01AA8000022
(1677654882.549245) can1 133#0000000089
(1677654882.549342) can1 136#000200000000000C
(1677654882.549351) can1 13A#000000000000000A
(1677654882.549356) can1 039#000C
(1677654882.549361) can1 13F#0000000500000000
(1677654882.549366) can1 17C#0000000010000003
(1677654882.551056) can1 18E#00004D
(1677654882.551099) can1 1CF#80050000000F
(1677654882.551118) can1 1DC#0200000C
(1677654882.552693) can1 183#0000000E0000100D
(1677654882.552779) can1 143#6B6B00C2
(1677654882.554434) can1 244#0000000178
(1677654882.554518) can1 095#800007F400000035
(1677654882.554525) can1 1A4#000000080000002F
(1677654882.554529) can1 1AA#7FFF000000006720
(1677654882.555701) can1 1B0#000F0000000166
(1677654882.557219) can1 1D0#000000000000000A
(1677654882.557295) can1 166#D0320009
(1677654882.557303) can1 011#0210010000000000
(1677654882.557308) can1 158#000000000000000A
(1677654882.557312) can1 161#000005500108000D
(1677654882.558943) can1 191#010010A1410038
(1677654882.559014) can1 133#0000000098
(1677654882.559020) can1 136#000200000000001B
(1677654882.559025) can1 13A#0000000000000019
(1677654882.559029) can1 13F#000000050000001F
(1677654882.560604) can1 164#0000C01AA8000031
(1677654882.560652) can1 17C#0000000010000012
(1677654882.562234) can1 18E#00005C
(1677654882.563707) can1 183#0000000A00001010
(1677654882.565399) can1 143#6B6B00D1
(1677654882.566962) can1 039#001B
(1677654882.567039) can1 095#800007F400000008
(1677654882.567045) can1 244#000000011D
(1677654882.567050) can1 012#0210010000000000
(1677654882.568609) can1 166#D0320018
(1677654882.568685) can1 158#0000000000000019
(1677654882.568691) can1 161#000005500108001C
(1677654882.568695) can1 191#010010A141000B
(1677654882.568699) can1 164#0000C01AA8000004
(1677654882.568704) can1 133#00000000A7
(1677654882.568708) can1 136#000200000000002A
(1677654882.570358) can1 13A#0000000000000028
(1677654882.570434) can1 13F#000000050000002E
(1677654882.570441) can1 17C#0000000010000021
(1677654882.571999) can1 18E#00006B
(1677654882.573061) can1 1CF#80050000001E
(1677654882.573559) can1 1DC#0200001B
(1677654882.573634) can1 183#0000000700001022
(1677654882.573641) can1 143#6B6B00E0
(1677654882.573646) can1 333#0000000000002D
(1677654882.575270) can1 095#800007F400000017
(1677654882.575370) can1 1A4#000000080000003E
(1677654882.576926) can1 244#0000000147
(1677654882.577008) can1 1AA#7FFF00000000673F
(1677654882.577015) can1 1B0#000F0000000175
(1677654882.577020) can1 1D0#000000000000000A
(1677654882.578392) can1 039#002A
(1677654882.578470) can1 166#D0320027
(1677654882.578477) can1 013#0210010000000000
(1677654882.578482) can1 158#0000000000000028
(1677654882.578486) can1 161#000005500108002B
(1677654882.578491) can1 191#010010A141001A
(1677654882.580090) can1 133#00000000B6
(1677654882.580163) can1 136#0002000000000039
(1677654882.581827) can1 13A#0000000000000037
(1677654882.581905) can1 13F#000000050000003D
(1677654882.583406) can1 164#0000C01AA8000013
(1677654882.584007) can1 17C#0000000010000030
(1677654882.584984) can1 18E#00007A
(1677654882.586689) can1 294#040B0002CF5A001D
(1677654882.586773) can1 21E#03E83745220610
(1677654882.586778) can1 183#0000000500001033
(1677654882.588299) can1 143#6B6B00FF
(1677654882.588370) can1 095#800007F400000026
(1677654882.588375) can1 166#D0320036
(1677654882.588380) can1 244#00000001A2
(1677654882.588384) can1 158#0000000000000037
(1677654882.588388) can1 014#0210010000000000
(1677654882.588392) can1 161#000005500108003A
(1677654882.588396) can1 191#010010A1410029
(1677654882.589861) can1 164#0000C01AA8000022
(1677654882.589933) can1 133#0000000089
(1677654882.589938) can1 136#000200000000000C
(1677654882.591421) can1 13A#000000000000000A
(1677654882.591505) can1 13F#0000000500000000
(1677654882.592969) can1 17C#0000000010000003
(1677654882.593050) can1 18E#00004D
(1677654882.594700) can1 1CF#80050000002D
(1677654882.594780) can1 1DC#0200002A
(1677654882.594786) can1 320#000021
(1677654882.596373) can1 324#7465000000000E29
(1677654882.596456) can1 37C#FD00FD00097F0029
(1677654882.598095) can1 183#0000000300001008
(1677654882.598179) can1 143#6B6B00C2
(1677654882.598185) can1 095#800007F400000035
(1677654882.598191) can1 1A4#0000000800000001
(1677654882.598196) can1 1AA#7FFF000000006801
(1677654882.598201) can1 1B0#000F0000000148
(1677654882.598205) can1 1D0#000000000000000A
(1677654882.598233) can1 039#0039
(1677654882.599668) can1 166#D0320009
(1677654882.599766) can1 244#0000000112
(1677654882.600205) can1 015#0210010000000000
(1677654882.601255) can1 158#000000000000000A
(1677654882.601341) can1 161#000005500108000D
(1677654882.602994) can1 191#010010A1410038
(1677654882.606190) can1 133#0000000098
(1677654882.607386) can1 136#000200000000001B
(1677654882.607441) can1 13A#0000000000000019
(1677654882.607445) can1 13F#000000050000001F
(1677654882.607448) can1 164#0000C01AA8000031
(1677654882.607451) can1 17C#0000000010000012
(1677654882.608854) can1 18E#00005C
(1677654882.608940) can1 183#0000000A00001010
(1677654882.608947) can1 143#6B6B00D1
(1677654882.608953) can1 095#800007F400000008
(1677654882.608958) can1 166#D0320018
(1677654882.608963) can1 039#000C
(1677654882.608969) can1 158#0000000000000019
(1677654882.608974) can1 161#000005500108001C
(1677654882.610579) can1 016#0210010000000000
(1677654882.610629) can1 191#010010A141000B
(1677654882.610632) can1 164#0000C01AA8000004
(1677654882.610635) can1 133#00000000A7
(1677654882.611185) can1 136#000200000000002A
(1677654882.611727) can1 13A#0000000000000028
(1677654882.611815) can1 13F#000000050000002E
(1677654882.613461) can1 17C#0000000010000021
(1677654882.613536) can1 18E#00006B
(1677654882.613544) can1 1CF#80050000003C
(1677654882.615190) can1 1DC#02000039
(1677654882.615264) can1 183#0000000700001022
(1677654882.615270) can1 143#6B6B00E0
(1677654882.616734) can1 095#800007F400000017
(1677654882.616814) can1 244#0000000101
(1677654882.616821) can1 1A4#0000000800000010
(1677654882.618434) can1 1AA#7FFF000000006810
(1677654882.618508) can1 1B0#000F0000000157
(1677654882.618514) can1 1D0#000000000000000A
(1677654882.618519) can1 166#D0320027
(1677654882.618524) can1 158#0000000000000028
(1677654882.618528) can1 017#0210010000000000
(1677654882.618533) can1 161#000005500108002B
(1677654882.620053) can1 191#010010A141001A
(1677654882.620126) can1 133#00000000B6
(1677654882.621764) can1 136#0002000000000039
(1677654882.621857) can1 13A#0000000000000037
(1677654882.622390) can1 13F#000000050000003D
(1677654882.623413) can1 164#0000C01AA8000013
(1677654882.625138) can1 17C#0000000010000030
(1677654882.626864) can1 18E#00007A
(1677654882.626940) can1 294#040B0002CF5A002C
(1677654882.626948) can1 21E#03E8374522062F
(1677654882.626953) can1 309#00000000000000B1
(1677654882.628400) can1 039#001B
(1677654882.628448) can1 183#0000000500001033
(1677654882.628452) can1 143#6B6B00FF
(1677654882.628454) can1 095#800007F400000026
(1677654882.628458) can1 188#00000000
(1677654882.628460) can1 166#D0320036
(1677654882.630058) can1 158#0000000000000037
(1677654882.630133) can1 161#000005500108003A
(1677654882.630138) can1 191#010010A1410029
(1677654882.630143) can1 018#0210010000000000
(1677654882.631629) can1 164#0000C01AA9000021
(1677654882.633142) can1 133#0000000089
(1677654882.633213) can1 244#0000000178
(1677654882.633215) can1 136#000200000000000C
(1677654882.634831) can1 13A#000000000000000A
(1677654882.634903) can1 13F#0000000500000000
(1677654882.634910) can1 17C#0000000010000003
(1677654882.636564) can1 18E#00004D
(1677654882.636648) can1 1CF#80050000000F
(1677654882.636655) can1 1DC#0200000C
(1677654882.638310) can1 183#0000000B00001000
(1677654882.638420) can1 143#6B6B00C2
(1677654882.638426) can1 095#800007F400000035
(1677654882.638430) can1 305#8035
(1677654882.638434) can1 1A4#000000080000002F
(1677654882.638438) can1 1AA#7FFF000000006720
(1677654882.638443) can1 1B0#000F0000000166
(1677654882.638447) can1 1D0#000000000000000A
(1677654882.639653) can1 166#D0320009
(1677654882.640952) can1 158#000000000000000A
(1677654882.641047) can1 161#000005500108000D
(1677654882.641088) can1 191#010010A1410038
(1677654882.644395) can1 019#0210010000000000
(1677654882.644415) can1 133#0000000098
(1677654882.645875) can1 136#000200000000001B
(1677654882.647501) can1 13A#0000000000000019
(1677654882.647573) can1 13F#000000050000001F
(1677654882.647578) can1 164#0000C01AA8000031
(1677654882.647581) can1 17C#0000000010000012
(1677654882.647584) can1 18E#00005C
(1677654882.647587) can1 244#00000001A6
(1677654882.649230) can1 039#002A
(1677654882.649314) can1 183#0000000800001012
(1677654882.649347) can1 143#6B6B00D1
(1677654882.649353) can1 095#800007F400000008
(1677654882.649358) can1 166#D0320018
(1677654882.649362) can1 158#0000000000000019
(1677654882.650755) can1 161#000005500108001C
(1677654882.650836) can1 191#010010A141000B
(1677654882.653976) can1 164#0000C01AA8000004
(1677654882.654072) can1 133#00000000A7
(1677654882.654089) can1 136#000200000000002A
(1677654882.654094) can1 13A#0000000000000028
(1677654882.654099) can1 13F#000000050000002E
(1677654882.654128) can1 01A#0210010000000000
(1677654882.655235) can1 17C#0000000010000021
(1677654882.655839) can1 18E#00006B
(1677654882.657472) can1 1CF#80050000001E
(1677654882.657568) can1 1DC#0200001B
(1677654882.657575) can1 183#0000000600001023
(1677654882.657580) can1 244#0000000172
(1677654882.657642) can1 143#6B6B00E0
(1677654882.657649) can1 095#800007F400000017
(1677654882.659007) can1 1A4#000000080000003E
(1677654882.659103) can1 1AA#7FFF00000000673F
(1677654882.659112) can1 1B0#000F0000000175
(1677654882.659117) can1 1D0#000000000000000A
(1677654882.659153) can1 039#0039
(1677654882.659159) can1 166#D0320027
(1677654882.660475) can1 158#0000000000000028
(1677654882.660519) can1 161#000005500108002B
(1677654882.663172) can1 191#010010A141001A
(1677654882.665938) can1 133#00000000B6
(1677654882.667386) can1 136#0002000000000039
(1677654882.667425) can1 13A#0000000000000037
(1677654882.667429) can1 13F#000000050000003D
(1677654882.667432) can1 01B#0210010000000000
(1677654882.667435) can1 164#0000C01AA8000013
(1677654882.668681) can1 17C#0000000010000030
(1677654882.668781) can1 18E#00007A
(1677654882.668821) can1 294#040B0002CF5A003B
(1677654882.668827) can1 21E#03E8374522063E
(1677654882.668832) can1 183#0000000C0000103C
(1677654882.668838) can1 143#6B6B00FF
(1677654882.668843) can1 244#00000001CC
(1677654882.670073) can1 095#800007F800000022
(1677654882.670175) can1 166#D0320036
(1677654882.671135) can1 158#0000000000000037
(1677654882.671595) can1 161#000005500108003A
(1677654882.673357) can1 191#010010A1410029
(1677654882.673440) can1 164#0000C01AA8000022
(1677654882.673447) can1 133#0000000089
(1677654882.675104) can1 039#000C
(1677654882.675186) can1 136#000200000000000C
(1677654882.675192) can1 13A#000000000000000A
(1677654882.676648) can1 13F#0000000500000000
(1677654882.676745) can1 17C#0000000010000003
(1677654882.678413) can1 18E#00004D
(1677654882.678502) can1 1CF#80050000002D
(1677654882.678508) can1 01C#0210010000000000
(1677654882.678513) can1 1DC#0200002A
(1677654882.678518) can1 183#0000000900001002
(1677654882.678522) can1 143#6B6B00C2
(1677654882.678527) can1 333#0000000000003C
(1677654882.678531) can1 244#00000001FD
(1677654882.681656) can1 095#800007F800000031
(1677654882.681705) can1 1A4#0000000800000001
(1677654882.682272) can1 1AA#7FFF000000006801
(1677654882.683197) can1 1B0#000F0000000148
(1677654882.683243) can1 1D0#000000000000000A
(1677654882.686507) can1 166#D0320009
(1677654882.686604) can1 158#000000000000000A
(1677654882.686610) can1 161#000005500108000D
(1677654882.688287) can1 191#010010A1410038
(1677654882.688363) can1 133#0000000098
(1677654882.688370) can1 136#000200000000001B
(1677654882.688374) can1 13A#0000000000000019
(1677654882.688379) can1 13F#000000050000001F
(1677654882.688383) can1 164#0000C01AA8000031
(1677654882.688387) can1 01D#0210010000000000
(1677654882.688391) can1 17C#0000000010000012
(1677654882.690086) can1 18E#00005C
(1677654882.690161) can1 183#0000000E0000101C
(1677654882.690168) can1 143#6B6B00D1
(1677654882.691816) can1 039#001B
(1677654882.691898) can1 095#800007F800000004
(1677654882.693370) can1 244#00000001B0
(1677654882.693425) can1 166#D0320018
(1677654882.693460) can1 158#0000000000000019
(1677654882.693466) can1 161#000005500108001C
(1677654882.695132) can1 191#010090A1410003
(1677654882.695226) can1 133#00000000A7
(1677654882.695233) can1 136#000200000000002A
(1677654882.696782) can1 13A#0000000000000028
(1677654882.696878) can1 13F#000000050000002E
(1677654882.696885) can1 164#0000C01AA8000004
(1677654882.698569) can1 17C#0000000010000021
(1677654882.698617) can1 18E#00006B
(1677654882.698620) can1 1CF#80050000003C
(1677654882.698622) can1 1DC#02000039
(1677654882.698625) can1 320#000030
(1677654882.698627) can1 01E#0210010000000000
(1677654882.698629) can1 324#7465000000000E38
(1677654882.698632) can1 37C#FD00FD00097F0038
(1677654882.700236) can1 183#0000000A0000102F
(1677654882.700330) can1 143#6B6B00E0
(1677654882.702069) can1 095#800007F800000013
(1677654882.703685) can1 1A4#0000000800000010
(1677654882.704746) can1 1AA#7FFF000000006810
(1677654882.705194) can1 1B0#000F0000000157
(1677654882.705279) can1 1D0#000000000000000A
(1677654882.706970) can1 039#002A
(1677654882.707065) can1 166#D0320027
(1677654882.707073) can1 158#0000000000000028
(1677654882.707078) can1 161#000005500108002B
(1677654882.708611) can1 191#010090A1410012
(1677654882.708706) can1 133#00000000B6
(1677654882.708713) can1 136#0002000000000039
(1677654882.708719) can1 13A#0000000000000037
(1677654882.708723) can1 13F#000000050000003D
(1677654882.708728) can1 164#0000C01AA9000012
(1677654882.708733) can1 01F#0210010000000000
(1677654882.710161) can1 244#000000014D
(1677654882.710254) can1 17C#0000000010000030
(1677654882.710261) can1 18E#00007A
(1677654882.710268) can1 294#040B0002CF5A000E
(1677654882.710275) can1 21E#03E83745220601
(1677654882.711876) can1 183#0000000F00001039
(1677654882.713646) can1 143#6B6B00FF
(1677654882.713741) can1 095#800007F800000022
(1677654882.713748) can1 166#D0320036
(1677654882.713753) can1 158#0000000000000037
(1677654882.714915) can1 161#000005500108003A
(1677654882.715485) can1 191#010090A1410021
(1677654882.716571) can1 164#0000C01AA8000022
(1677654882.716668) can1 133#0000000089
(1677654882.716675) can1 136#000200000000000C
(1677654882.718339) can1 13A#000000000000000A
(1677654882.718432) can1 13F#0000000500000000
(1677654882.718439) can1 17C#0000000010000003
(1677654882.718443) can1 18E#00004D
(1677654882.718446) can1 1CF#80050000000F
(1677654882.718449) can1 1DC#0200000C
(1677654882.718452) can1 020#0210010000000000
(1677654882.718455) can1 183#0000001300001007
(1677654882.720148) can1 244#00000001B3
(1677654882.720196) can1 039#0039
(1677654882.721605) can1 143#6B6B00C2
(1677654882.721702) can1 095#800007F400000035
(1677654882.723351) can1 1A4#000000080000002F
(1677654882.726623) can1 1AA#7FFF000000006720
(1677654882.726655) can1 1B0#000F0000000166
(1677654882.726703) can1 1D0#000000000000000A
(1677654882.726709) can1 166#D0320009
(1677654882.728303) can1 158#000000000000000A
(1677654882.728347) can1 161#000005500108000D
(1677654882.728351) can1 191#010090A1410030
(1677654882.728353) can1 133#0000000098
(1677654882.728356) can1 136#000200000000001B
(1677654882.728359) can1 13A#0000000000000019
(1677654882.728361) can1 13F#000000050000001F
(1677654882.728364) can1 164#0000C01AA8000031
(1677654882.730027) can1 17C#0000000010000012
(1677654882.730071) can1 18E#00005C
(1677654882.730074) can1 309#0000000000000084
(1677654882.731561) can1 183#0000000E0000101C
(1677654882.731659) can1 021#0210010000000000
(1677654882.733149) can1 143#6B6B00D1
(1677654882.733245) can1 244#000000012C
(1677654882.735117) can1 095#800007F400000008
(1677654882.735265) can1 039#000C
(1677654882.735270) can1 166#D0320018
(1677654882.735276) can1 158#0000000000000019
(1677654882.736680) can1 161#000005500108001C
(1677654882.736780) can1 191#010090A1410003
(1677654882.737740) can1 164#0000C01AA8000004
(1677654882.738219) can1 133#00000000A7
(1677654882.738266) can1 136#000200000000002A
(1677654882.738270) can1 13A#0000000000000028
(1677654882.738272) can1 13F#000000050000002E
(1677654882.738274) can1 17C#0000000010000021
(1677654882.738277) can1 18E#00006B
(1677654882.738279) can1 1CF#80050000001E
(1677654882.739766) can1 1DC#0200001B
(1677654882.739815) can1 022#0210010000000000
(1677654882.739819) can1 183#0000000A0000102F
(1677654882.739821) can1 143#6B6B00E0
(1677654882.741506) can1 095#800007F400000017
(1677654882.741554) can1 244#0000000175
(1677654882.743028) can1 1A4#000000080000003E
(1677654882.745889) can1 1AA#7FFF00000000673F
(1677654882.747342) can1 1B0#000F0000000175
(1677654882.747387) can1 1D0#000000000000000A
(1677654882.747391) can1 166#D0320027
(1677654882.747393) can1 158#0000000000000028
(1677654882.747396) can1 161#000005500108002B
(1677654882.747399) can1 191#010090A1410012
(1677654882.748378) can1 133#00000000B6
(1677654882.748912) can1 136#0002000000000039
(1677654882.748958) can1 039#001B
(1677654882.748961) can1 13A#0000000000000037
(1677654882.748964) can1 13F#000000050000003D
(1677654882.748966) can1 164#0000C01AA8000013
(1677654882.748969) can1 17C#0000000010000030
(1677654882.748971) can1 18E#00007A
(1677654882.750664) can1 294#040B0002CF5A001D
(1677654882.750712) can1 305#8008
(1677654882.753982) can1 21E#03E83745220610
(1677654882.754069) can1 023#0210010000000000
(1677654882.754089) can1 183#0000000700001031
(1677654882.754095) can1 143#6B6B00FF
(1677654882.754099) can1 244#0000000187
(1677654882.755537) can1 095#800007F400000026
(1677654882.757091) can1 5A1#960000000000622F
(1677654882.757177) can1 166#D0320036
(1677654882.757184) can1 158#0000000000000037
(1677654882.757189) can1 161#000005500108003A
(1677654882.758844) can1 191#010090A1410021
(1677654882.758933) can1 133#0000000089
(1677654882.758940) can1 136#000200000000000C
(1677654882.758944) can1 13A#000000000000000A
(1677654882.758948) can1 13F#0000000500000000
(1677654882.758952) can1 164#0000C01AA8000022
(1677654882.759425) can1 17C#0000000010000003
(1677654882.760567) can1 18E#00004D
(1677654882.760620) can1 1CF#80050000002D
(1677654882.760624) can1 1DC#0200002A
(1677654882.763831) can1 024#0210010000000000
(1677654882.765340) can1 183#0000000500001006
(1677654882.767083) can1 143#6B6B00C2
(1677654882.767194) can1 039#002A
(1677654882.767206) can1 095#800007F400000035
(1677654882.767211) can1 1A4#0000000800000001
(1677654882.768873) can1 1AA#7FFF000000006801
(1677654882.768959) can1 1B0#000F0000000148
(1677654882.768965) can1 1D0#000000000000000A
(1677654882.768970) can1 244#0000000172
(1677654882.768975) can1 166#D0320009
(1677654882.768979) can1 158#000000000000000A
(1677654882.768983) can1 161#000005500108000D
(1677654882.768987) can1 191#010090A1410030
(1677654882.770380) can1 133#0000000098
(1677654882.770389) can1 136#000200000000001B
(1677654882.770468) can1 13A#0000000000000019
(1677654882.773684) can1 13F#000000050000001F
(1677654882.773768) can1 164#0000C01AA8000031
(1677654882.773775) can1 17C#0000000010000012
(1677654882.773779) can1 18E#00005C
(1677654882.775263) can1 025#0210010000000000
(1677654882.775337) can1 183#0000000B0000101F
(1677654882.776936) can1 143#6B6B00D1
(1677654882.777068) can1 095#800007F400000008
(1677654882.777073) can1 244#00000001BF
(1677654882.777076) can1 039#0039
(1677654882.777079) can1 166#D0320018
(1677654882.778588) can1 158#0000000000000019
(1677654882.778637) can1 161#000005500108001C
(1677654882.778640) can1 191#010090A1410003
(1677654882.778643) can1 133#00000000A7
(1677654882.778645) can1 136#000200000000002A
(1677654882.778648) can1 13A#0000000000000028
(1677654882.778650) can1 13F#000000050000002E
(1677654882.780194) can1 164#0000C01AA8000004
(1677654882.781480) can1 17C#0000000010000021
(1677654882.781555) can1 18E#00006B
(1677654882.781558) can1 1CF#80050000003C
(1677654882.783417) can1 1DC#02000039
(1677654882.786711) can1 183#0000000800001021
(1677654882.786791) can1 026#0210010000000000
(1677654882.786797) can1 143#6B6B00E0
(1677654882.788449) can1 333#0000000000000F
(1677654882.788542) can1 095#800007F400000017
(1677654882.788551) can1 1A4#0000000800000010
(1677654882.788557) can1 1AA#7FFF000000006810
(1677654882.788563) can1 1B0#000F0000000157
(1677654882.788569) can1 1D0#000000000000000A
(1677654882.788574) can1 244#00000001FA
(1677654882.788580) can1 166#D0320027
(1677654882.788584) can1 158#0000000000000028
(1677654882.790241) can1 161#000005500108002B
(1677654882.790327) can1 191#010090A1410012
(1677654882.790334) can1 133#00000000B6
(1677654882.790339) can1 136#0002000000000039
(1677654882.791871) can1 13A#0000000000000037
(1677654882.792578) can1 13F#000000050000003D
(1677654882.793443) can1 164#0000C01AA8000013
(1677654882.793530) can1 17C#0000000010000030
(1677654882.793536) can1 18E#00007A
(1677654882.793544) can1 294#040B0002CF5A002C
(1677654882.795306) can1 21E#03E8374522062F
(1677654882.795361) can1 183#0000000D0000103B
(1677654882.796795) can1 143#6B6B00FF
(1677654882.796879) can1 027#0210010000000000
(1677654882.796886) can1 095#800007F400000026
(1677654882.798308) can1 039#000C
(1677654882.798388) can1 166#D0320036
(1677654882.798394) can1 244#000000011C
(1677654882.798399) can1 158#0000000000000037
(1677654882.798404) can1 161#000005500108003A
(1677654882.798408) can1 191#010090A1410021
(1677654882.798412) can1 133#0000000089
(1677654882.801627) can1 136#000200000000000C
(1677654882.801708) can1 13A#000000000000000A
(1677654882.803706) can1 13F#0000000500000000
(1677654882.803981) can1 164#0000C01AA8000022
(1677654882.806491) can1 17C#0000000010000003
(1677654882.806552) can1 18E#00004D
(1677654882.807657) can1 1CF#80050000000F
(1677654882.807720) can1 1DC#0200000C
(1677654882.807734) can1 320#000003
(1677654882.807751) can1 324#7465000000000E0B
(1677654882.807755) can1 37C#FD00FD00097F000B
(1677654882.807758) can1 183#0000000900001002
(1677654882.808987) can1 40C#033133383439000D
(1677654882.809080) can1 454#23EF09
(1677654882.809087) can1 143#6B6B00C2
(1677654882.809093) can1 028#0210010000000000
(1677654882.809098) can1 095#800007F400000035
(1677654882.809103) can1 1A4#000000080000002F
(1677654882.809108) can1 1AA#7FFF000000006720
(1677654882.810573) can1 1B0#000F0000000166
(1677654882.810664) can1 1D0#000000000000000A
(1677654882.810672) can1 166#D0320009
(1677654882.810678) can1 158#000000000000000A
(1677654882.810683) can1 244#000000012F
(1677654882.810722) can1 161#000005500108000D
(1677654882.813419) can1 191#010090A1410030
(1677654882.813479) can1 18E#00005C
(1677654882.813482) can1 133#0000000098
(1677654882.814978) can1 136#000200000000001B
(1677654882.815052) can1 13A#0000000000000019
(1677654882.815068) can1 039#001B
(1677654882.816611) can1 13F#000000050000001F
(1677654882.816657) can1 164#0000C01AA8000031
(1677654882.816660) can1 17C#0000000010000012
(1677654882.818088) can1 183#0000000600001014
(1677654882.818248) can1 143#6B6B00D1
(1677654882.818252) can1 029#0210010000000000
(1677654882.818255) can1 095#800007F400000008
(1677654882.818257) can1 166#D0320018
(1677654882.818260) can1 158#0000000000000019
(1677654882.818262) can1 161#000005500108001C
(1677654882.820705) can1 191#010090A1410003
(1677654882.820982) can1 164#0000C01AA8000004
(1677654882.820986) can1 133#00000000A7
(1677654882.820989) can1 136#000200000000002A
(1677654882.820991) can1 13A#0000000000000028
(1677654882.822439) can1 13F#000000050000002E
(1677654882.823825) can1 17C#0000000010000021
(1677654882.823870) can1 18E#00006B
(1677654882.825877) can1 1CF#80050000001E
(1677654882.826695) can1 1DC#0200001B
(1677654882.827585) can1 183#0000000C0000102D
(1677654882.827652) can1 143#6B6B00E0
(1677654882.827660) can1 02A#0210010000000000
(1677654882.827668) can1 095#800007F400000017
(1677654882.827673) can1 039#002A
(1677654882.827677) can1 1A4#000000080000003E
(1677654882.829319) can1 244#00000001E4
(1677654882.829377) can1 1AA#7FFF00000000673F
(1677654882.829381) can1 1B0#000F0000000175
(1677654882.829385) can1 1D0#000000000000000A
(1677654882.829388) can1 166#D0320027
(1677654882.829391) can1 158#0000000000000028
(1677654882.831023) can1 161#000005500108002B
(1677654882.831104) can1 191#010090A1410012
(1677654882.832800) can1 133#00000000B6
(1677654882.834477) can1 136#0002000000000039
(1677654882.834563) can1 13A#0000000000000037
(1677654882.834569) can1 13F#000000050000003D
(1677654882.834575) can1 164#0000C01AA8000013
(1677654882.836114) can1 17C#0000000010000030
(1677654882.837778) can1 18E#00007A
(1677654882.837820) can1 294#040B0002CF5A003B
(1677654882.837833) can1 21E#03E8374522063E
(1677654882.837838) can1 309#0000000000000093
(1677654882.837841) can1 428#01040000521C10
(1677654882.837843) can1 405#000004000000001A
(1677654882.837846) can1 183#000000090000103F
(1677654882.837849) can1 143#6B6B00FF
(1677654882.839218) can1 02B#0210010000000000
(1677654882.839298) can1 095#800007F400000026
(1677654882.839304) can1 166#D0320036
(1677654882.839309) can1 158#0000000000000037
(1677654882.839314) can1 161#000005500108003A
(1677654882.839340) can1 191#010090A1410021
(1677654882.839346) can1 039#0039
(1677654882.840799) can1 133#0000000089
(1677654882.840882) can1 136#000200000000000C
(1677654882.843586) can1 13A#000000000000000A
(1677654882.845915) can1 13F#0000000500000000
(1677654882.847526) can1 164#0000C01AA8000022
(1677654882.847625) can1 244#0000000103
(1677654882.847633) can1 17C#0000000010000003
(1677654882.847639) can1 18E#00004D
(1677654882.847644) can1 1CF#80050000002D
(1677654882.847651) can1 1DC#0200002A
(1677654882.848560) can1 183#0000000E0000100D
(1677654882.849045) can1 143#6B6B00C2
(1677654882.849102) can1 095#800007F400000035
(1677654882.849106) can1 02C#0210010000000000
(1677654882.849109) can1 1A4#0000000800000001
(1677654882.849112) can1 1AA#7FFF000000006801
(1677654882.849115) can1 1B0#000F0000000148
(1677654882.850759) can1 1D0#000000000000000A
(1677654882.850847) can1 166#D0320009
(1677654882.852419) can1 158#000000000000000A
(1677654882.853935) can1 161#000005500108000D
(1677654882.854022) can1 191#010090A1410030
(1677654882.857158) can1 133#0000000098
(1677654882.857247) can1 136#000200000000001B
(1677654882.857257) can1 13A#0000000000000019
(1677654882.857263) can1 13F#000000050000001F
(1677654882.858717) can1 164#0000C01AA8000031
(1677654882.858804) can1 17C#0000000010000012
(1677654882.858843) can1 18E#00005C
(1677654882.858849) can1 183#0000000A00001010
(1677654882.858853) can1 244#0000000129
(1677654882.858857) can1 039#000C
(1677654882.859300) can1 143#6B6B00D1
(1677654882.860395) can1 305#8017
(1677654882.860477) can1 02D#0210010000000000
(1677654882.862098) can1 095#800007F400000008
(1677654882.862145) can1 166#D0320018
(1677654882.863290) can1 158#0000000000000019
(1677654882.866386) can1 161#000005500108001C
(1677654882.867696) can1 191#010090A1410003
(1677654882.867777) can1 133#00000000A7
(1677654882.867783) can1 136#000200000000002A
(1677654882.867788) can1 13A#0000000000000028
(1677654882.867792) can1 13F#000000050000002E
(1677654882.869799) can1 164#0000C01AA8000004
(1677654882.869846) can1 17C#0000000010000021
(1677654882.869851) can1 18E#00006B
(1677654882.869854) can1 1CF#80050000003C
(1677654882.869857) can1 1DC#02000039
(1677654882.869859) can1 183#0000000700001022
(1677654882.869862) can1 143#6B6B00E0
(1677654882.869865) can1 095#800007F400000017
(1677654882.869868) can1 02E#0210010000000000
(1677654882.869870) can1 1A4#0000000800000010
(1677654882.871100) can1 1AA#7FFF000000006810
(1677654882.871240) can1 1B0#000F0000000157
(1677654882.871254) can1 1D0#000000000000000A
(1677654882.872738) can1 166#D0320027
(1677654882.874032) can1 244#00000001C7
(1677654882.874109) can1 158#0000000000000028
(1677654882.874117) can1 161#000005500108002B
(1677654882.875565) can1 191#010090A1410012
(1677654882.875627) can1 133#00000000B6
(1677654882.875634) can1 136#0002000000000039
(1677654882.877154) can1 039#001B
(1677654882.877247) can1 13A#0000000000000037
(1677654882.877253) can1 13F#000000050000003D
(1677654882.878844) can1 164#0000C01AA8000013
(1677654882.878880) can1 17C#0000000010000030
(1677654882.878883) can1 18E#00007A
(1677654882.878885) can1 294#040B0002CF5A000E
(1677654882.878887) can1 21E#03E83745220601
(1677654882.878889) can1 183#0000000D0000103B
(1677654882.880555) can1 143#6B6B00FF
(1677654882.880670) can1 095#800007F400000026
(1677654882.880676) can1 02F#0210010000000000
(1677654882.880683) can1 166#D0320036
(1677654882.882496) can1 158#0000000000000037
(1677654882.882626) can1 161#000005500108003A
(1677654882.883646) can1 191#010090A1410021
(1677654882.886829) can1 164#0000C01AA8000022
(1677654882.886883) can1 133#0000000089
(1677654882.888286) can1 136#000200000000000C
(1677654882.888376) can1 13A#000000000000000A
(1677654882.888385) can1 13F#0000000500000000
(1677654882.888389) can1 17C#0000000010000003
(1677654882.888392) can1 18E#00004D
(1677654882.888395) can1 1CF#80050000000F
(1677654882.888398) can1 1DC#0200000C
(1677654882.890035) can1 183#0000000900001002
(1677654882.890071) can1 039#002A
(1677654882.890073) can1 143#6B6B00C2
(1677654882.890075) can1 333#0000000000001E
(1677654882.890077) can1 244#0000000135
(1677654882.890079) can1 095#800007F400000035
(1677654882.891653) can1 1A4#000000080000002F
(1677654882.893356) can1 1AA#7FFF000000006720
(1677654882.893978) can1 1B0#000F0000000166
(1677654882.894705) can1 030#0210010000000000
(1677654882.894770) can1 1D0#000000000000000A
(1677654882.894776) can1 166#D0320009
(1677654882.894781) can1 158#000000000000000A
(1677654882.896145) can1 161#000005500108000D
(1677654882.897857) can1 191#010090A1410030
(1677654882.897921) can1 133#0000000098
(1677654882.897925) can1 136#000200000000001B
(1677654882.897935) can1 13A#0000000000000019
(1677654882.897937) can1 13F#000000050000001F
(1677654882.899246) can1 164#0000C01AA8000031
(1677654882.899327) can1 17C#0000000010000012
(1677654882.899334) can1 18E#00005C
(1677654882.899339) can1 183#0000000600001014
(1677654882.899344) can1 143#6B6B00D1
(1677654882.899348) can1 095#800007F400000008
(1677654882.899353) can1 244#0000000138
(1677654882.900859) can1 031#0210010000000000
(1677654882.902284) can1 166#D0320018
(1677654882.903724) can1 158#0000000000000019
(1677654882.905070) can1 161#000005500108001C
(1677654882.905949) can1 191#010090A1410003
(1677654882.907861) can1 164#0000C01AA8000004
(1677654882.907886) can1 133#00000000A7
(1677654882.907894) can1 136#000200000000002A
(1677654882.907896) can1 13A#0000000000000028
(1677654882.907897) can1 13F#000000050000002E
(1677654882.909605) can1 17C#0000000010000021
(1677654882.909679) can1 18E#00006B
(1677654882.909683) can1 1CF#80050000001E
(1677654882.909687) can1 1DC#0200001B
(1677654882.909690) can1 320#000012
(1677654882.909693) can1 324#7465000000000E1A
(1677654882.909714) can1 37C#FD00FD00097F001A
(1677654882.909718) can1 039#0039
(1677654882.911344) can1 183#0000000C0000102D
(1677654882.911371) can1 143#6B6B00E0
(1677654882.912751) can1 095#800007F400000017
(1677654882.914176) can1 1A4#000000080000003E
(1677654882.914227) can1 1AA#7FFF00000000673F
(1677654882.914230) can1 244#00000001DB
(1677654882.915973) can1 032#0210010000000000
(1677654882.915976) can1 1B0#000F0000000175
(1677654882.916021) can1 1D0#000000000000000A
(1677654882.917264) can1 166#D0320027
(1677654882.917357) can1 158#0000000000000028
(1677654882.917363) can1 161#000005500108002B
(1677654882.918500) can1 191#010090A1410012
(1677654882.918543) can1 133#00000000B6
(1677654882.918547) can1 136#0002000000000039
(1677654882.918551) can1 13A#0000000000000037
(1677654882.920167) can1 13F#000000050000003D
(1677654882.920213) can1 164#0000C01AA9000012
(1677654882.920217) can1 17C#0000000010000030
(1677654882.920221) can1 18E#00007A
(1677654882.920224) can1 294#040B0002CF5A001D
(1677654882.920227) can1 21E#03E83745220610
(1677654882.921608) can1 183#000000090000103F
(1677654882.923589) can1 143#6B6B00FF
(1677654882.925531) can1 711#0000000500000000
(1677654882.927429) can1 911#03666c61550110AA
(1677654882.927477) can1 158#0000000000000019
(1677654882.927482) can1 161#000005500108000D
(1677654882.927485) can1 191#010010A1410038
(1677654882.927488) can1 0D2#0210010000000000
(1677654882.927554) can1 18E#00005C
(1677654882.929388) can1 133#0000000098
(1677654882.929442) can1 136#000200000000001B
(1677654882.929447) can1 13A#0000000000000019
(1677654882.929450) can1 13F#000000050000001F
(1677654882.929453) can1 164#0000C01AA8000031
(1677654882.929456) can1 17C#0000000010000012
(1677654882.929459) can1 183#0000000900001011
(1677654882.929461) can1 133#0000000098
(1677654882.930842) can1 136#000200000000001B
(1677654882.932604) can1 13A#0000000000000019
(1677654882.933957) can1 13F#000000050000001F
(1677654882.934046) can1 164#0000C01AA8000031
(1677654882.934054) can1 039#001B
(1677654882.934059) can1 17C#0000000010000012
(1677654882.935480) can1 18E#00005C
(1677654882.935566) can1 183#0000000D0000101D
(1677654882.937333) can1 244#000000015F
(1677654882.937393) can1 143#6B6B00D1
(1677654882.937397) can1 1E3#0210010000000000
(1677654882.938337) can1 095#800007F400000008
(1677654882.938764) can1 166#D0320018
(1677654882.938800) can1 158#0000000000000019
(1677654882.938803) can1 161#000005500108001C
(1677654882.938805) can1 191#010090A1410003
(1677654882.938806) can1 133#00000000A7
(1677654882.938808) can1 136#000200000000002A
(1677654882.940261) can1 13A#0000000000000028
(1677654882.940345) can1 13F#000000050000002E
(1677654882.940352) can1 164#0000C01AA8000004
(1677654882.941769) can1 17C#0000000010000021
(1677654882.943343) can1 18E#00006B
(1677654882.946676) can1 1CF#80050000001E
(1677654882.948025) can1 1DC#0200001B
(1677654882.948072) can1 320#000012
(1677654882.948076) can1 324#7465000000000E1A
(1677654882.948080) can1 37C#FD00FD00097F001A
(1677654882.948083) can1 183#0000000900001020
(1677654882.948086) can1 143#6B6B00E0
(1677654882.949521) can1 039#002A
(1677654882.949578) can1 305#8017
(1677654882.949606) can1 244#0000000179
(1677654882.949613) can1 1E4#0210010000000000
(1677654882.949620) can1 095#800007F400000017
(1677654882.949625) can1 1A4#000000080000003E
(1677654882.949629) can1 1AA#7FFF00000000683E
(1677654882.949635) can1 1B0#000F0000000175
(1677654882.951453) can1 1D0#000000000000000A
(1677654882.952930) can1 166#D0320027
(1677654882.952987) can1 158#0000000000000028
(1677654882.952992) can1 161#000005500108002B
(1677654882.954459) can1 191#010090A1410012
(1677654882.954481) can1 133#00000000B6
(1677654882.954488) can1 136#0002000000000039
(1677654882.954494) can1 13A#0000000000000037
(1677654882.954498) can1 13F#000000050000003D
(1677654882.955558) can1 164#0000C01AA8000013
(1677654882.957426) can1 17C#0000000010000030
(1677654882.957492) can1 18E#00007A
(1677654882.957497) can1 294#040B0002CF5A003B
(1677654882.958804) can1 21E#03E8374522063E
(1677654882.958877) can1 183#0000000E0000103A
(1677654882.958884) can1 143#6B6B00FF
(1677654882.958888) can1 244#00000001C0
(1677654882.958892) can1 095#800007F400000026
(1677654882.958897) can1 1E5#0210010000000000
(1677654882.960226) can1 166#D0320036
(1677654882.960273) can1 158#0000000000000037
(1677654882.960277) can1 161#000005500108003A
(1677654882.960280) can1 191#010090A1410021
(1677654882.960726) can1 039#0039
(1677654882.961933) can1 133#0000000089
(1677654882.963847) can1 136#000200000000000C
(1677654882.965433) can1 13A#000000000000000A
(1677654882.965520) can1 13F#0000000500000000
(1677654882.967430) can1 164#0000C01AA8000022
(1677654882.967513) can1 17C#0000000010000003
(1677654882.967520) can1 18E#00004D
(1677654882.968729) can1 1CF#80050000002D
(1677654882.968789) can1 1DC#0200002A
(1677654882.968793) can1 183#0000000A00001001
(1677654882.968796) can1 143#6B6B00C2
(1677654882.968799) can1 1E6#0210010000000000
(1677654882.968801) can1 244#0000000126
(1677654882.993802) can1 095#800007F400000035
(1677654882.993889) can1 1A4#0000000800000001
(1677654882.993896) can1 1AA#7FFF000000006801
(1677654882.993899) can1 1B0#000F0000000148
(1677654882.993902) can1 1D0#000000000000000A
(1677654882.993905) can1 166#D0320009
(1677654882.993908) can1 158#000000000000000A
(1677654882.993910) can1 161#000005500108000D
(1677654882.993913) can1 191#010090A1410030
(1677654882.993915) can1 133#0000000098
(1677654882.993918) can1 136#000200000000001B
(1677654882.993920) can1 13A#0000000000000019
(1677654882.993923) can1 13F#000000050000001F
(1677654882.993925) can1 164#0000C01AA8000031
(1677654882.993927) can1 17C#0000000010000012
(1677654882.993931) can1 18E#00005C
(1677654882.993933) can1 309#00000000000000A2
(1677654882.993936) can1 183#0000000700001013
(1677654882.993939) can1 143#6B6B00D1
(1677654882.993941) can1 039#000C
(1677654882.993944) can1 095#800007F400000008
(1677654882.993946) can1 1E7#0210010000000000
(1677654882.993949) can1 244#000000018F
(1677654882.993951) can1 166#D0320018
(1677654882.993953) can1 158#0000000000000019
(1677654882.993955) can1 161#000005500108001C
(1677654882.993958) can1 191#010090A1410003
(1677654882.993960) can1 133#00000000A7
(1677654882.993963) can1 136#000200000000002A
(1677654882.993967) can1 13A#0000000000000028
(1677654882.993995) can1 13F#000000050000002E
(1677654882.994003) can1 164#0000C01AA8000004
(1677654882.994006) can1 17C#0000000010000021
(1677654882.994009) can1 18E#00006B
(1677654882.994011) can1 1CF#80050000003C
(1677654882.994014) can1 1DC#02000039
(1677654882.994016) can1 183#0000000500001024
(1677654882.994019) can1 143#6B6B00E0
(1677654882.994022) can1 095#800007F400000017
(1677654882.994024) can1 1A4#0000000800000010
(1677654882.994028) can1 1AA#7FFF000000006711
(1677654882.994030) can1 1E8#0210010000000000
(1677654882.994033) can1 1B0#000F0000000157
(1677654882.994035) can1 1D0#000000000000000A
(1677654882.994038) can1 039#001B
(1677654882.994041) can1 166#D0320027
(1677654882.994043) can1 158#0000000000000028
(1677654882.994599) can1 161#000005500108002B
(1677654882.995408) can1 191#010090A1410012
(1677654882.995427) can1 133#00000000B6
(1677654882.997680) can1 136#0002000000000039
(1677654882.997737) can1 13A#0000000000000037
(1677654882.997742) can1 13F#000000050000003D
(1677654882.997745) can1 164#0000C01AA8000013
(1677654882.997749) can1 17C#0000000010000030
(1677654882.999343) can1 18E#00007A
(1677654882.999404) can1 294#040B0002CF5A000E
(1677654882.999410) can1 21E#03E83745220601
(1677654882.999413) can1 244#00000001BD
(1677654882.999416) can1 183#0000000300001035
(1677654882.999419) can1 143#6B6B00FF
(1677654882.999421) can1 095#800007F400000026
(1677654882.999424) can1 1E9#0210010000000000
(1677654883.000793) can1 166#D0320036
(1677654883.000883) can1 158#0000000000000037
(1677654883.002607) can1 161#000005500108003A
(1677654883.002693) can1 191#010090A1410021
(1677654883.005778) can1 133#0000000089
(1677654883.005871) can1 136#000200000000000C
(1677654883.007903) can1 13A#000000000000000A
(1677654883.007954) can1 13F#0000000500000000
(1677654883.007959) can1 164#0000C01AA8000022
(1677654883.007970) can1 17C#0000000010000003
(1677654883.007973) can1 18E#00004D
(1677654883.007976) can1 1CF#80050000000F
(1677654883.009661) can1 1DC#0200000C
(1677654883.009751) can1 183#0000000A00001001
(1677654883.009986) can1 039#002A
(1677654883.009990) can1 143#6B6B00C2
(1677654883.009995) can1 095#800007F400000035
(1677654883.009999) can1 1A4#000000080000002F
(1677654883.010004) can1 1AA#7FFF000000006720
(1677654883.010008) can1 1B0#000F0000000166
(1677654883.011154) can1 1D0#000000000000000A
(1677654883.012721) can1 1EA#0210010000000000
(1677654883.013930) can1 166#D0320009
(1677654883.013991) can1 244#00000001DB
(1677654883.015317) can1 158#000000000000000A
(1677654883.015371) can1 161#000005500108000D
(1677654883.016504) can1 191#010090A1410030
(1677654883.017083) can1 133#0000000098
(1677654883.017784) can1 136#000200000000001B
(1677654883.017837) can1 13A#0000000000000019
(1677654883.017841) can1 13F#000000050000001F
(1677654883.017845) can1 164#0000C01AA8000031
(1677654883.017847) can1 17C#0000000010000012
(1677654883.019307) can1 18E#00005C
(1677654883.019339) can1 183#0000000700001013
(1677654883.019341) can1 143#6B6B00D1
(1677654883.019344) can1 095#800007F400000008
(1677654883.019346) can1 039#0039
(1677654883.021026) can1 1EB#0210010000000000
(1677654883.021119) can1 166#D0320018
(1677654883.023644) can1 158#0000000000000019
(1677654883.023697) can1 161#000005500108001C
(1677654883.026789) can1 191#010090A1410003
(1677654883.026851) can1 133#00000000A7
(1677654883.028300) can1 136#000200000000002A
(1677654883.028384) can1 13A#0000000000000028
(1677654883.028391) can1 13F#000000050000002E
(1677654883.028396) can1 164#0000C01AA8000004
(1677654883.028400) can1 17C#0000000010000021
(1677654883.028405) can1 18E#00006B
(1677654883.029851) can1 1CF#80050000001E
(1677654883.029923) can1 1DC#0200001B
(1677654883.029927) can1 183#0000000500001024
(1677654883.029932) can1 143#6B6B00E0
(1677654883.029935) can1 333#0000000000002D
(1677654883.029938) can1 244#000000018B
(1677654883.031448) can1 095#800007F400000017
(1677654883.033047) can1 1A4#000000080000003E
(1677654883.033273) can1 1AA#7FFF00000000683E
(1677654883.034755) can1 1B0#000F0000000175
(1677654883.034845) can1 1D0#000000000000000A
(1677654883.034854) can1 166#D0320027
(1677654883.034860) can1 1EC#0210010000000000
(1677654883.036217) can1 158#0000000000000028
(1677654883.036304) can1 161#000005500108002B
(1677654883.037961) can1 191#010090A1410012
(1677654883.038045) can1 133#00000000B6
(1677654883.038052) can1 136#0002000000000039
(1677654883.038056) can1 13A#0000000000000037
(1677654883.038060) can1 13F#000000050000003D
(1677654883.039580) can1 164#0000C01AA8000013
(1677654883.039660) can1 17C#0000000010000030
(1677654883.039667) can1 18E#00007A
(1677654883.039673) can1 294#040B0002CF5A001D
(1677654883.039678) can1 21E#03E83745220610
(1677654883.039683) can1 183#0000000B0000103D
(1677654883.039687) can1 143#6B6B00FF
(1677654883.041032) can1 095#800007F400000026
(1677654883.041124) can1 244#00000001B0
(1677654883.042806) can1 039#000C
(1677654883.044338) can1 1ED#0210010000000000
(1677654883.047137) can1 166#D0320036
(1677654883.047188) can1 158#0000000000000037
(1677654883.047193) can1 161#000005500108003A
(1677654883.048797) can1 191#010010A1410029
(1677654883.048862) can1 133#0000000089
(1677654883.048869) can1 136#000200000000000C
(1677654883.048875) can1 13A#000000000000000A
(1677654883.048881) can1 13F#0000000500000000
(1677654883.048886) can1 164#0000C01AA8000022
(1677654883.048893) can1 17C#0000000010000003
(1677654883.050142) can1 18E#00004D
(1677654883.050206) can1 1CF#80050000002D
(1677654883.050213) can1 711#0210010000000000
(1677654883.050219) can1 911#03675f6c2d661815
(1677654883.051678) can1 1B0#000F0000000166
(1677654883.051730) can1 1D0#000000000000000A
(1677654883.053368) can1 166#D0320009
(1677654883.054896) can1 244#00000001AC
(1677654883.054974) can1 158#000000000000000A
(1677654883.054981) can1 1B0#000F0000000166
(1677654883.054987) can1 039#001B
(1677654883.054993) can1 1D0#000000000000000A
(1677654883.054998) can1 305#8026
(1677654883.055562) can1 166#D0320009
(1677654883.056488) can1 158#000000000000000A
(1677654883.058004) can1 161#000005500108000D
(1677654883.058075) can1 191#010010A1410038
(1677654883.058090) can1 18E#00005C
(1677654883.058095) can1 133#0000000098
(1677654883.058099) can1 136#000200000000001B
(1677654883.058104) can1 13A#0000000000000019
(1677654883.059645) can1 13F#000000050000001F
(1677654883.059693) can1 489#0210010000000000
(1677654883.059697) can1 164#0000C01AA8000031
(1677654883.059700) can1 17C#0000000010000012
(1677654883.060869) can1 183#0000000900001011
(1677654883.062751) can1 143#6B6B00D1
(1677654883.062813) can1 095#800007F400000008
(1677654883.065982) can1 244#00000001CE
(1677654883.066287) can1 166#D0320018
(1677654883.067638) can1 158#0000000000000019
(1677654883.067668) can1 161#000005500108001C
(1677654883.067672) can1 191#010010A141000B
(1677654883.067675) can1 164#0000C01AA8000004
(1677654883.068929) can1 133#00000000A7
(1677654883.068975) can1 136#000200000000002A
(1677654883.068979) can1 13A#0000000000000028
(1677654883.068982) can1 13F#000000050000002E
(1677654883.068984) can1 17C#0000000010000021
(1677654883.068987) can1 18E#00006B
(1677654883.070520) can1 48A#0210010000000000
(1677654883.070603) can1 1CF#80050000001E
(1677654883.070606) can1 039#002A
(1677654883.070608) can1 1DC#0200001B
(1677654883.070611) can1 320#000012
(1677654883.070615) can1 183#0000000600001023
(1677654883.070617) can1 324#7465000000000E1A
(1677654883.070620) can1 37C#FD00FD00097F001A
(1677654883.071972) can1 40C#0236323239533039
(1677654883.072031) can1 454#23EF36
(1677654883.073639) can1 143#6B6B00E0
(1677654883.073692) can1 095#800007F400000017
(1677654883.075264) can1 1A4#000000080000003E
(1677654883.075309) can1 1AA#7FFF00000000673F
(1677654883.075312) can1 1B0#000F0000000175
(1677654883.076535) can1 244#000000018F
(1677654883.077846) can1 1D0#000000000000000A
(1677654883.077892) can1 166#D0320027
(1677654883.077895) can1 158#0000000000000028
(1677654883.077897) can1 161#000005500108002B
(1677654883.077900) can1 191#010010A141001A
(1677654883.079668) can1 133#00000000B6
(1677654883.079757) can1 136#0002000000000039
(1677654883.079763) can1 13A#0000000000000037
(1677654883.079768) can1 13F#000000050000003D
(1677654883.079794) can1 164#0000C01AA8000013
(1677654883.079799) can1 17C#0000000010000030
(1677654883.079803) can1 18E#00007A
(1677654883.081456) can1 48B#0210010000000000
(1677654883.081533) can1 711#040B0002CF5A001D
(1677654883.082105) can1 911#03656e3a39875329
(1677654883.083127) can1 143#6B6B00FF
(1677654883.083211) can1 095#800007F400000026
(1677654883.086047) can1 039#0039
(1677654883.087971) can1 244#000000014B
(1677654883.087999) can1 166#D0320036
(1677654883.088002) can1 158#0000000000000037
(1677654883.088004) can1 161#000005500108003A
(1677654883.088006) can1 191#010010A1410029
(1677654883.088008) can1 164#0000C01AA8000022
(1677654883.089163) can1 133#0000000089
(1677654883.089245) can1 136#000200000000000C
(1677654883.089252) can1 13A#000000000000000A
(1677654883.089258) can1 13F#0000000500000000
(1677654883.089262) can1 17C#0000000010000003
(1677654883.089266) can1 18E#00004D
(1677654883.090652) can1 1CF#80050000002D
(1677654883.091813) can1 48C#0210010000000000
(1677654883.093235) can1 1DC#0200002A
(1677654883.093468) can1 183#0000000A00001001
(1677654883.094782) can1 143#6B6B00C2
(1677654883.094835) can1 095#800007F400000035
(1677654883.094839) can1 1A4#0000000800000001
(1677654883.094843) can1 1AA#7FFF000000006702
(1677654883.096238) can1 1B0#000F0000000148
(1677654883.097749) can1 1D0#000000000000000A
(1677654883.097804) can1 166#D0320009
(1677654883.097807) can1 158#000000000000000A
(1677654883.097809) can1 161#000005500108000D
(1677654883.097811) can1 039#000C
(1677654883.097814) can1 191#010010A1410038
(1677654883.099498) can1 164#0000C01AA8000031
(1677654883.099564) can1 133#0000000098
(1677654883.099569) can1 136#000200000000001B
(1677654883.099572) can1 13A#0000000000000019
(1677654883.099575) can1 13F#000000050000001F
(1677654883.099577) can1 17C#0000000010000012
(1677654883.099580) can1 18E#00005C
(1677654883.101224) can1 309#00000000000000A2
(1677654883.101314) can1 428#01040000521C01
(1677654883.101348) can1 48D#0210010000000000
(1677654883.102997) can1 405#000004000000000B
(1677654883.104302) can1 183#0000000700001013
(1677654883.106766) can1 244#0000000180
(1677654883.106854) can1 143#6B6B00D1
(1677654883.108382) can1 095#800007F400000008
(1677654883.108478) can1 166#D0320018
(1677654883.108485) can1 158#0000000000000019
(1677654883.108490) can1 161#000005500108001C
(1677654883.108495) can1 191#010010A141000B
(1677654883.108499) can1 164#0000C01AA8000004
(1677654883.108504) can1 133#00000000A7
(1677654883.110040) can1 136#000200000000002A
(1677654883.110164) can1 13A#0000000000000028
(1677654883.110173) can1 13F#000000050000002E
(1677654883.110178) can1 17C#0000000010000021
(1677654883.110182) can1 18E#00006B
(1677654883.110187) can1 1CF#80050000003C
(1677654883.111873) can1 1DC#02000039
(1677654883.113577) can1 183#0000000500001024
(1677654883.113672) can1 039#001B
(1677654883.114932) can1 48E#0210010000000000
(1677654883.115007) can1 143#6B6B00E0
(1677654883.115013) can1 244#0000000130
(1677654883.115537) can1 095#800007F400000017
(1677654883.116438) can1 1A4#0000000800000010
(1677654883.118201) can1 1AA#7FFF000000006810
(1677654883.118279) can1 1B0#000F0000000157
(1677654883.118285) can1 1D0#000000000000000A
(1677654883.118289) can1 166#D0320027
(1677654883.118295) can1 158#0000000000000028
(1677654883.118301) can1 161#000005500108002B
(1677654883.118306) can1 191#010010A141001A
(1677654883.119611) can1 164#0000C01AA8000013
(1677654883.119697) can1 133#00000000B6
(1677654883.119704) can1 136#0002000000000039
(1677654883.119709) can1 13A#0000000000000037
(1677654883.119714) can1 13F#000000050000003D
(1677654883.121400) can1 17C#0000000010000030
(1677654883.121485) can1 18E#00007A
(1677654883.122925) can1 294#040B0002CF5A002C
(1677654883.124574) can1 21E#03E8374522062F
(1677654883.126255) can1 48F#0210010000000000
(1677654883.126280) can1 183#0000000B0000103D
(1677654883.127705) can1 143#6B6B00FF
(1677654883.127735) can1 095#800007F400000026
(1677654883.127738) can1 039#002A
(1677654883.127740) can1 166#D0320036
(1677654883.127742) can1 158#0000000000000037
(1677654883.129461) can1 161#000005500108003A
(1677654883.129546) can1 191#010010A1410029
(1677654883.129551) can1 164#0000C01AA8000022
(1677654883.129554) can1 133#0000000089
(1677654883.129558) can1 136#000200000000000C
(1677654883.129560) can1 13A#000000000000000A
(1677654883.129563) can1 13F#0000000500000000
(1677654883.130928) can1 17C#0000000010000003
(1677654883.132351) can1 18E#00004D
(1677654883.134049) can1 1CF#80050000000F
(1677654883.134135) can1 1DC#0200000C
(1677654883.134141) can1 244#00000001F1
(1677654883.134146) can1 183#0000000800001003
(1677654883.135628) can1 143#6B6B00C2
(1677654883.135702) can1 490#0210010000000000
(1677654883.137261) can1 095#800007F400000035
(1677654883.137282) can1 1A4#000000080000002F
(1677654883.137346) can1 1AA#7FFF00000000682F
(1677654883.137354) can1 1B0#000F0000000166
(1677654883.139323) can1 1D0#000000000000000A
(1677654883.139380) can1 166#D0320009
(1677654883.139385) can1 158#000000000000000A
(1677654883.139388) can1 161#000005500108000D
(1677654883.139391) can1 191#010010A1410038
(1677654883.139393) can1 164#0000C01AA8000031
(1677654883.139396) can1 133#0000000098
(1677654883.139399) can1 136#000200000000001B
(1677654883.140740) can1 039#0039
(1677654883.142165) can1 13A#0000000000000019
(1677654883.143753) can1 13F#000000050000001F
(1677654883.147057) can1 17C#0000000010000012
(1677654883.147123) can1 18E#00005C
(1677654883.147126) can1 244#000000017D
(1677654883.147998) can1 183#0000000D0000101D
(1677654883.148885) can1 143#6B6B00D1
(1677654883.148954) can1 491#0210010000000000
(1677654883.148959) can1 095#800007F400000008
(1677654883.148962) can1 166#D0320018
(1677654883.148965) can1 158#0000000000000019
(1677654883.148967) can1 161#000005500108001C
(1677654883.148970) can1 191#010010A141000B
(1677654883.148973) can1 164#0000C01AA8000004
(1677654883.150632) can1 133#00000000A7
(1677654883.150719) can1 136#000200000000002A
(1677654883.150725) can1 13A#0000000000000028
(1677654883.152200) can1 13F#000000050000002E
(1677654883.152279) can1 17C#0000000010000021
(1677654883.152285) can1 18E#00006B
(1677654883.153783) can1 1CF#80050000001E
(1677654883.153876) can1 1DC#0200001B
(1677654883.153884) can1 183#0000000900001020
(1677654883.155552) can1 492#0210010000000000
(1677654883.155593) can1 143#6B6B00E0
(1677654883.155598) can1 244#00000001BA
(1677654883.157089) can1 333#0000000000002D
(1677654883.157161) can1 039#000C
(1677654883.159125) can1 095#800007F400000017
(1677654883.159169) can1 1A4#000000080000003E
(1677654883.159171) can1 1AA#7FFF00000000673F
(1677654883.159174) can1 1B0#000F0000000175
(1677654883.159175) can1 1D0#000000000000000A
(1677654883.159177) can1 166#D0320027
(1677654883.159178) can1 158#0000000000000028
(1677654883.159180) can1 161#000005500108002B
(1677654883.159182) can1 191#010010A141001A
(1677654883.159186) can1 18E#00007A
(1677654883.160482) can1 133#00000000B6
(1677654883.160520) can1 136#0002000000000039
(1677654883.160523) can1 13A#0000000000000037
(1677654883.161817) can1 13F#000000050000003D
(1677654883.163236) can1 164#0000C01AA8000013
(1677654883.166219) can1 17C#0000000010000030
(1677654883.166304) can1 294#040B0002CF5A003B
(1677654883.167802) can1 305#8035
(1677654883.167915) can1 21E#03E8374522063E
(1677654883.167922) can1 183#0000000600001032
(1677654883.167926) can1 493#0210010000000000
(1677654883.167931) can1 143#6B6B00FF
(1677654883.169554) can1 244#00000001FB
(1677654883.169601) can1 095#800007F400000026
(1677654883.169604) can1 166#D0320036
(1677654883.169606) can1 039#001B
(1677654883.169609) can1 158#0000000000000037
(1677654883.169611) can1 161#000005500108003A
(1677654883.169614) can1 191#010010A1410029
(1677654883.169617) can1 164#0000C01AA8000022
(1677654883.170681) can1 133#0000000089
(1677654883.171116) can1 136#000200000000000C
(1677654883.171209) can1 13A#000000000000000A
(1677654883.171237) can1 13F#0000000500000000
(1677654883.171244) can1 17C#0000000010000003
(1677654883.174133) can1 18E#00004D
(1677654883.174187) can1 1CF#80050000002D
(1677654883.174191) can1 1DC#0200002A
(1677654883.174195) can1 320#000021
(1677654883.175961) can1 183#0000000C0000100F
(1677654883.176005) can1 324#7465000000000E29
(1677654883.177150) can1 37C#FD00FD00097F0029
(1677654883.177224) can1 143#6B6B00C2
(1677654883.178848) can1 494#0210010000000000
(1677654883.178922) can1 095#800007F400000035
(1677654883.178928) can1 1A4#0000000800000001
(1677654883.178933) can1 244#00000001BD
(1677654883.178938) can1 1AA#7FFF000000006702
(1677654883.178943) can1 1B0#000F0000000148
(1677654883.178947) can1 1D0#000000000000000A
(1677654883.180743) can1 166#D0320009
(1677654883.180805) can1 158#000000000000000A
(1677654883.181497) can1 161#000005500108000D
(1677654883.182098) can1 191#010010A1410038
(1677654883.183279) can1 18E#00005C
(1677654883.186474) can1 133#0000000098
(1677654883.188040) can1 136#000200000000001B
(1677654883.188121) can1 13A#0000000000000019
(1677654883.188128) can1 13F#000000050000001F
(1677654883.188133) can1 164#0000C01AA8000031
(1677654883.188138) can1 17C#0000000010000012
(1677654883.188143) can1 183#0000000900001011
(1677654883.188147) can1 143#6B6B00D1
(1677654883.189816) can1 495#0210010000000000
(1677654883.189852) can1 095#800007F400000008
(1677654883.189854) can1 244#000000011C
(1677654883.189856) can1 166#D0320018
(1677654883.189858) can1 158#0000000000000019
(1677654883.189860) can1 161#000005500108001C
(1677654883.189862) can1 039#002A
(1677654883.191126) can1 164#0000C01AA8000004
(1677654883.192242) can1 191#010010A141000B
(1677654883.193667) can1 133#00000000A7
(1677654883.193749) can1 136#000200000000002A
(1677654883.195320) can1 13A#0000000000000028
(1677654883.195390) can1 13F#000000050000002E
(1677654883.195396) can1 17C#0000000010000021
(1677654883.196860) can1 18E#00006B
(1677654883.196942) can1 1CF#80050000003C
(1677654883.198519) can1 1DC#02000039
(1677654883.198574) can1 183#0000000E0000102B
(1677654883.198578) can1 143#6B6B00E0
(1677654883.198581) can1 496#0210010000000000
(1677654883.198584) can1 095#800007F400000017
(1677654883.198587) can1 1A4#0000000800000010
(1677654883.198589) can1 1AA#7FFF000000006810
(1677654883.200477) can1 1B0#000F0000000157
(1677654883.200561) can1 1D0#000000000000000A
(1677654883.200568) can1 244#0000000198
(1677654883.200574) can1 166#D0320027
(1677654883.200578) can1 158#0000000000000028
(1677654883.200582) can1 161#000005500108002B
(1677654883.200592) can1 191#010010A141001A
(1677654883.202001) can1 164#0000C01AA8000013
(1677654883.203590) can1 133#00000000B6
(1677654883.203605) can1 136#0002000000000039
(1677654883.207245) can1 13A#0000000000000037
(1677654883.207283) can1 13F#000000050000003D
(1677654883.207285) can1 17C#0000000010000030
(1677654883.207294) can1 18E#00007A
(1677654883.208443) can1 294#040B0002CF5A000E
(1677654883.208523) can1 21E#03E83745220601
(1677654883.208529) can1 309#00000000000000B1
(1677654883.208534) can1 183#0000000A0000103E
(1677654883.208538) can1 039#0039
(1677654883.209963) can1 143#6B6B00FF
(1677654883.210011) can1 497#0210010000000000
(1677654883.210015) can1 095#800007F400000026
(1677654883.210018) can1 166#D0320036
(1677654883.210020) can1 244#0000000188
(1677654883.211797) can1 158#0000000000000037
(1677654883.213483) can1 161#000005500108003A
(1677654883.213562) can1 191#010010A1410029
(1677654883.214560) can1 164#0000C01AA8000022
(1677654883.214736) can1 133#0000000089
(1677654883.214810) can1 136#000200000000000C
(1677654883.214822) can1 13A#000000000000000A
(1677654883.214827) can1 13F#0000000500000000
(1677654883.216366) can1 17C#0000000010000003
(1677654883.218042) can1 18E#00004D
(1677654883.218117) can1 1CF#80050000000F
(1677654883.218123) can1 1DC#0200000C
(1677654883.218128) can1 183#0000000700001004
(1677654883.218132) can1 143#6B6B00C2
(1677654883.218159) can1 095#800007F400000035
(1677654883.219621) can1 498#0210010000000000
(1677654883.219699) can1 1A4#000000080000002F
(1677654883.219705) can1 1AA#7FFF00000000682F
(1677654883.219710) can1 1B0#000F0000000166
(1677654883.221291) can1 039#000C
(1677654883.221351) can1 1D0#000000000000000A
(1677654883.222902) can1 166#D0320009
(1677654883.225186) can1 158#000000000000000A
(1677654883.226182) can1 161#000005500108000D
(1677654883.227701) can1 191#010010A1410038
(1677654883.227771) can1 18E#00005C
(1677654883.227778) can1 244#00000001C0
(1677654883.227784) can1 133#0000000098
(1677654883.227789) can1 136#000200000000001B
(1677654883.229413) can1 13A#0000000000000019
(1677654883.229472) can1 13F#000000050000001F
(1677654883.229479) can1 164#0000C01AA8000031
(1677654883.229485) can1 17C#0000000010000012
(1677654883.229490) can1 183#0000000D0000101D
(1677654883.229494) can1 143#6B6B00D1
(1677654883.229499) can1 095#800007F400000008
(1677654883.230989) can1 499#0210010000000000
(1677654883.231067) can1 166#D0320018
(1677654883.231074) can1 158#0000000000000019
(1677654883.234267) can1 161#000005500108001C
(1677654883.234325) can1 191#010010A141000B
(1677654883.234333) can1 164#0000C01AA8000004
(1677654883.234339) can1 133#00000000A7
(1677654883.234343) can1 136#000200000000002A
(1677654883.235851) can1 13A#0000000000000028
(1677654883.235882) can1 13F#000000050000002E
(1677654883.237513) can1 17C#0000000010000021
(1677654883.237569) can1 18E#00006B
(1677654883.237576) can1 1CF#80050000001E
(1677654883.237582) can1 1DC#0200001B
(1677654883.239203) can1 183#0000000900001020
(1677654883.239260) can1 039#001B
(1677654883.239267) can1 143#6B6B00E0
(1677654883.239273) can1 095#800007F400000017
(1677654883.239278) can1 1A4#000000080000003E
(1677654883.239282) can1 1AA#7FFF00000000673F
(1677654883.239287) can1 49A#0210010000000000
(1677654883.240723) can1 244#00000001CB
(1677654883.240786) can1 1B0#000F0000000175
(1677654883.242309) can1 1D0#000000000000000A
(1677654883.243788) can1 166#D0320027
(1677654883.247148) can1 158#0000000000000028
(1677654883.247218) can1 161#000005500108002B
(1677654883.247225) can1 191#010010A141001A
(1677654883.248702) can1 164#0000C01AA8000013
(1677654883.248773) can1 133#00000000B6
(1677654883.248779) can1 136#0002000000000039
(1677654883.248785) can1 13A#0000000000000037
(1677654883.248789) can1 13F#000000050000003D
(1677654883.248794) can1 17C#0000000010000030
(1677654883.248799) can1 18E#00007A
(1677654883.248803) can1 294#040B0002CF5A001D
(1677654883.250468) can1 21E#03E83745220610
(1677654883.250536) can1 183#0000000600001032
(1677654883.250541) can1 143#6B6B00FF
(1677654883.250546) can1 095#800007F400000026
(1677654883.252102) can1 49B#0210010000000000
(1677654883.252107) can1 244#0000000162
(1677654883.252129) can1 166#D0320036
(1677654883.253799) can1 158#0000000000000037
(1677654883.253869) can1 161#000005500108003A
(1677654883.253875) can1 191#010010A1410029
(1677654883.255363) can1 164#0000C01AA8000022
(1677654883.255433) can1 133#0000000089
(1677654883.256872) can1 136#000200000000000C
(1677654883.256949) can1 13A#000000000000000A
(1677654883.258175) can1 13F#0000000500000000
(1677654883.258261) can1 17C#0000000010000003
(1677654883.258267) can1 18E#00004D
(1677654883.258271) can1 1CF#80050000002D
(1677654883.258275) can1 1DC#0200002A
(1677654883.258280) can1 183#0000000C0000100F
(1677654883.259710) can1 039#002A
(1677654883.259787) can1 143#6B6B00C2
(1677654883.259793) can1 333#0000000000003C
(1677654883.260962) can1 095#800007F400000035
(1677654883.262656) can1 1A4#0000000800000001
(1677654883.262729) can1 1AA#7FFF000000006702
(1677654883.262906) can1 1B0#000F0000000148
(1677654883.264287) can1 49C#0210010000000000
(1677654883.265552) can1 1D0#000000000000000A
(1677654883.267299) can1 166#D0320009
(1677654883.267491) can1 158#000000000000000A
(1677654883.267585) can1 161#000005500108000D
(1677654883.267597) can1 191#010010A1410038
(1677654883.269011) can1 18E#00005C
(1677654883.269082) can1 133#0000000098
(1677654883.269087) can1 136#000200000000001B
(1677654883.269091) can1 13A#0000000000000019
(1677654883.269095) can1 13F#000000050000001F
(1677654883.269100) can1 164#0000C01AA8000031
(1677654883.269104) can1 17C#0000000010000012
(1677654883.270782) can1 183#0000000900001011
(1677654883.270858) can1 143#6B6B00D1
(1677654883.270864) can1 244#00000001F7
(1677654883.270869) can1 305#8008
(1677654883.270874) can1 095#800007F400000008
(1677654883.270878) can1 49D#0210010000000000
(1677654883.272381) can1 166#D0320018
(1677654883.273873) can1 158#0000000000000019
(1677654883.273901) can1 161#000005500108001C
(1677654883.273904) can1 191#010090A1410003
(1677654883.273929) can1 164#0000C01AA8000004
(1677654883.275515) can1 133#00000000A7
(1677654883.275578) can1 136#000200000000002A
(1677654883.275585) can1 13A#0000000000000028
(1677654883.277253) can1 13F#000000050000002E
(1677654883.277321) can1 17C#0000000010000021
(1677654883.277327) can1 18E#00006B
(1677654883.278995) can1 1CF#80050000003C
(1677654883.279076) can1 1DC#02000039
(1677654883.279081) can1 320#000030
(1677654883.279086) can1 324#7465000000000E38
(1677654883.279091) can1 183#0000000E0000102B
(1677654883.279096) can1 37C#FD00FD00097F0038
(1677654883.279101) can1 039#0039
(1677654883.280312) can1 143#6B6B00E0
(1677654883.280378) can1 244#0000000173
(1677654883.280384) can1 095#800007F400000017
(1677654883.282054) can1 1A4#0000000800000010
(1677654883.283569) can1 1AA#7FFF000000006810
(1677654883.285212) can1 1B0#000F0000000157
(1677654883.285256) can1 1D0#000000000000000A
(1677654883.286898) can1 49E#0210010000000000
(1677654883.286930) can1 166#D0320027
(1677654883.288507) can1 158#0000000000000028
(1677654883.288579) can1 161#000005500108002B
(1677654883.288586) can1 191#010090A1410012
(1677654883.288591) can1 133#00000000B6
(1677654883.288596) can1 136#0002000000000039
(1677654883.288601) can1 13A#0000000000000037
(1677654883.288606) can1 13F#000000050000003D
(1677654883.290226) can1 164#0000C01AA8000013
(1677654883.290264) can1 17C#0000000010000030
(1677654883.290272) can1 18E#00007A
(1677654883.290275) can1 294#040B0002CF5A002C
(1677654883.290277) can1 21E#03E8374522062F
(1677654883.291647) can1 183#0000000A0000103E
(1677654883.292984) can1 143#6B6B00FF
(1677654883.294362) can1 095#800007F400000026
(1677654883.294379) can1 244#0000000133
(1677654883.294385) can1 039#000C
(1677654883.294390) can1 49F#0210010000000000
(1677654883.295742) can1 166#D0320036
(1677654883.297440) can1 158#0000000000000037
(1677654883.297484) can1 161#000005500108003A
(1677654883.297490) can1 191#010090A1410021
(1677654883.299130) can1 164#0000C01AA8000022
(1677654883.299170) can1 133#0000000089
(1677654883.299176) can1 136#000200000000000C
(1677654883.299182) can1 13A#000000000000000A
(1677654883.299187) can1 13F#0000000500000000
(1677654883.299193) can1 17C#0000000010000003
(1677654883.299199) can1 18E#00004D
(1677654883.299204) can1 1CF#80050000000F
(1677654883.300728) can1 1DC#0200000C
(1677654883.300793) can1 183#0000000F0000100C
(1677654883.300995) can1 143#6B6B00C2
(1677654883.302324) can1 095#800007F400000035
(1677654883.303903) can1 1A4#000000080000002F
(1677654883.305634) can1 1AA#7FFF00000000682F
(1677654883.306911) can1 1B0#000F0000000166
(1677654883.308444) can1 244#0000000167
(1677654883.308492) can1 1D0#000000000000000A
(1677654883.308500) can1 4A0#0210010000000000
(1677654883.308505) can1 166#D0320009
(1677654883.308521) can1 158#000000000000000A
(1677654883.308525) can1 161#000005500108000D
(1677654883.308530) can1 191#010090A1410030
(1677654883.310125) can1 18E#00005C
(1677654883.310156) can1 133#0000000098
(1677654883.310160) can1 136#000200000000001B
(1677654883.310164) can1 13A#0000000000000019
(1677654883.310167) can1 13F#000000050000001F
(1677654883.311842) can1 164#0000C01AA8000031
(1677654883.313320) can1 17C#0000000010000012
(1677654883.313371) can1 039#001B
(1677654883.314658) can1 309#0000000000000084
(1677654883.314683) can1 183#0000000B0000101F
(1677654883.314687) can1 143#6B6B00D1
(1677654883.314690) can1 095#800007F400000008
(1677654883.315871) can1 166#D0320018
(1677654883.317555) can1 244#0000000198
(1677654883.317643) can1 4A1#0210010000000000
(1677654883.317656) can1 158#0000000000000019
(1677654883.317665) can1 161#000005500108001C
(1677654883.317706) can1 191#010090A1410003
(1677654883.318977) can1 164#0000C01AA8000004
(1677654883.319001) can1 133#00000000A7
(1677654883.319004) can1 136#000200000000002A
(1677654883.319006) can1 13A#0000000000000028
(1677654883.319009) can1 13F#000000050000002E
(1677654883.319012) can1 17C#0000000010000021
(1677654883.320264) can1 18E#00006B
(1677654883.320309) can1 1CF#80050000001E
(1677654883.320315) can1 1DC#0200001B
(1677654883.321486) can1 183#0000000800001021
(1677654883.323175) can1 143#6B6B00E0
(1677654883.325927) can1 095#800007F400000017
(1677654883.327533) can1 039#002A
(1677654883.327572) can1 1A4#000000080000003E
(1677654883.327577) can1 1AA#7FFF00000000673F
(1677654883.327580) can1 1B0#000F0000000175
(1677654883.328796) can1 1D0#000000000000000A
(1677654883.328844) can1 166#D0320027
(1677654883.328851) can1 4A2#0210010000000000
(1677654883.328854) can1 244#000000012C
(1677654883.328857) can1 158#0000000000000028
(1677654883.328860) can1 161#000005500108002B
(1677654883.328862) can1 191#010090A1410012
(1677654883.330099) can1 133#00000000B6
(1677654883.330145) can1 136#0002000000000039
(1677654883.330151) can1 13A#0000000000000037
(1677654883.330155) can1 13F#000000050000003D
(1677654883.331591) can1 164#0000C01AA8000013
(1677654883.333164) can1 17C#0000000010000030
(1677654883.334371) can1 18E#00007A
(1677654883.334425) can1 294#040B0002CF5A003B
(1677654883.334431) can1 21E#03E8374522063E
(1677654883.334435) can1 183#0000000600001032
(1677654883.335821) can1 143#6B6B00FF
(1677654883.337489) can1 095#800007F400000026
(1677654883.337527) can1 166#D0320036
(1677654883.337533) can1 4A3#0210010000000000
(1677654883.339184) can1 244#00000001CB
(1677654883.339222) can1 158#0000000000000037
(1677654883.339228) can1 161#000005500108003A
(1677654883.339234) can1 039#0039
(1677654883.339238) can1 191#010090A1410021
(1677654883.339245) can1 164#0000C01AA8000022
(1677654883.339249) can1 133#0000000089
(1677654883.339772) can1 136#000200000000000C
(1677654883.340863) can1 13A#000000000000000A
(1677654883.342399) can1 13F#0000000500000000
(1677654883.342441) can1 17C#0000000010000003
(1677654883.344026) can1 18E#00004D
(1677654883.346828) can1 1CF#80050000002D
(1677654883.346881) can1 1DC#0200002A
(1677654883.348096) can1 183#0000000400001007
(1677654883.348150) can1 143#6B6B00C2
(1677654883.348156) can1 095#800007F400000035
(1677654883.348162) can1 1A4#0000000800000001
(1677654883.348166) can1 1AA#7FFF000000006702
(1677654883.349651) can1 1B0#000F0000000148
(1677654883.349731) can1 1D0#000000000000000A
(1677654883.349738) can1 166#D0320009
(1677654883.349743) can1 4A4#0210010000000000
(1677654883.349748) can1 158#000000000000000A
(1677654883.349752) can1 161#000005500108000D
(1677654883.349757) can1 191#010090A1410030
(1677654883.350795) can1 164#0000C01AA8000031
(1677654883.352105) can1 133#0000000098
(1677654883.352170) can1 136#000200000000001B
(1677654883.353459) can1 13A#0000000000000019
(1677654883.354814) can1 13F#000000050000001F
(1677654883.354898) can1 17C#0000000010000012
(1677654883.354909) can1 18E#00005C
(1677654883.354945) can1 183#0000000300001017
(1677654883.356498) can1 143#6B6B00D1
(1677654883.358472) can1 039#000C
(1677654883.358541) can1 095#800007F400000008
(1677654883.358545) can1 244#00000001C0
(1677654883.358549) can1 166#D0320018
(1677654883.358552) can1 4A5#0210010000000000
(1677654883.358555) can1 158#0000000000000019
(1677654883.358573) can1 161#000005500108001C
(1677654883.359790) can1 191#010090A1410003
(1677654883.359904) can1 164#0000C01AA8000004
(1677654883.359918) can1 133#00000000A7
(1677654883.359923) can1 136#000200000000002A
(1677654883.359928) can1 13A#0000000000000028
(1677654883.361267) can1 13F#000000050000002E
(1677654883.361306) can1 17C#0000000010000021
(1677654883.361311) can1 18E#00006B
(1677654883.362047) can1 1CF#80050000003C
(1677654883.362936) can1 1DC#02000039
(1677654883.366288) can1 183#0000000A0000102F
(1677654883.366370) can1 143#6B6B00E0
(1677654883.367525) can1 333#0000000000000F
(1677654883.367596) can1 095#800007F400000017
(1677654883.367604) can1 244#00000001D5
(1677654883.367611) can1 1A4#0000000800000010
(1677654883.369233) can1 1AA#7FFF000000006810
(1677654883.369296) can1 1B0#000F0000000157
(1677654883.369303) can1 1D0#000000000000000A
(1677654883.369309) can1 166#D0320027
(1677654883.369315) can1 4A6#0210010000000000
(1677654883.369321) can1 158#0000000000000028
(1677654883.369326) can1 161#000005500108002B
(1677654883.369330) can1 191#010090A1410012
(1677654883.370958) can1 133#00000000B6
(1677654883.371019) can1 136#0002000000000039
(1677654883.371026) can1 13A#0000000000000037
(1677654883.371032) can1 13F#000000050000003D
(1677654883.371038) can1 164#0000C01AA8000013
(1677654883.371044) can1 17C#0000000010000030
(1677654883.372531) can1 18E#00007A
(1677654883.374225) can1 294#040B0002CF5A000E
(1677654883.374297) can1 21E#03E83745220601
(1677654883.374306) can1 039#001B
(1677654883.374312) can1 183#0000000700001031
(1677654883.374317) can1 143#6B6B00FF
(1677654883.375423) can1 095#800007F400000026
(1677654883.376773) can1 244#000000014A
(1677654883.376828) can1 166#D0320036
(1677654883.378422) can1 305#8017
(1677654883.378466) can1 158#0000000000000037
(1677654883.378504) can1 161#000005500108003A
(1677654883.378511) can1 191#010090A1410021
(1677654883.378519) can1 4A7#0210010000000000
(1677654883.378524) can1 164#0000C01AA8000022
(1677654883.378582) can1 133#0000000089
(1677654883.378586) can1 136#000200000000000C
(1677654883.379950) can1 13A#000000000000000A
(1677654883.380005) can1 13F#0000000500000000
(1677654883.381206) can1 17C#0000000010000003
(1677654883.381245) can1 18E#00004D
(1677654883.383963) can1 1CF#80050000000F
(1677654883.386577) can1 1DC#0200000C
(1677654883.388092) can1 320#000003
(1677654883.388187) can1 324#7465000000000E0B
(1677654883.388194) can1 183#0000000D0000100E
(1677654883.388199) can1 37C#FD00FD00097F000B
(1677654883.388204) can1 40C#033133383439000D
(1677654883.388208) can1 454#23EF09
(1677654883.388212) can1 143#6B6B00C2
(1677654883.389610) can1 095#800007F400000035
(1677654883.389648) can1 1A4#000000080000002F
(1677654883.389703) can1 1AA#7FFF00000000682F
(1677654883.389753) can1 1B0#000F0000000166
(1677654883.389758) can1 039#002A
(1677654883.389762) can1 1D0#000000000000000A
(1677654883.389767) can1 166#D0320009
(1677654883.389772) can1 4A8#0210010000000000
(1677654883.392489) can1 158#000000000000000A
(1677654883.393820) can1 161#000005500108000D
(1677654883.393861) can1 191#010090A1410030
(1677654883.393865) can1 18E#00005C
(1677654883.395294) can1 133#0000000098
(1677654883.395305) can1 136#000200000000001B
(1677654883.395398) can1 13A#0000000000000019
(1677654883.396728) can1 13F#000000050000001F
(1677654883.396799) can1 164#0000C01AA8000031
(1677654883.398448) can1 17C#0000000010000012
(1677654883.398519) can1 244#000000019C
(1677654883.398544) can1 183#0000000900001011
(1677654883.398549) can1 143#6B6B00D1
(1677654883.398554) can1 095#800007F400000008
(1677654883.398558) can1 166#D0320018
(1677654883.398562) can1 158#0000000000000019
(1677654883.400220) can1 161#000005500108001C
(1677654883.400288) can1 191#010090A1410003
(1677654883.400295) can1 4A9#0210010000000000
(1677654883.400322) can1 164#0000C01AA8000004
(1677654883.400328) can1 133#00000000A7
(1677654883.400332) can1 039#0039
(1677654883.400337) can1 136#000200000000002A
(1677654883.400688) can1 13A#0000000000000028
(1677654883.401723) can1 13F#000000050000002E
(1677654883.401786) can1 17C#0000000010000021
(1677654883.403334) can1 18E#00006B
(1677654883.404814) can1 1CF#80050000001E
(1677654883.406463) can1 1DC#0200001B
(1677654883.407971) can1 183#0000000600001023
(1677654883.408061) can1 143#6B6B00E0
(1677654883.408077) can1 244#00000001A7
(1677654883.408106) can1 095#800007F400000017
(1677654883.408112) can1 1A4#000000080000003E
(1677654883.408118) can1 1AA#7FFF00000000673F
(1677654883.409764) can1 1B0#000F0000000175
(1677654883.409850) can1 1D0#000000000000000A
(1677654883.409856) can1 166#D0320027
(1677654883.409861) can1 158#0000000000000028
(1677654883.409865) can1 161#000005500108002B
(1677654883.409870) can1 191#010090A1410012
(1677654883.409874) can1 164#0000C01AA8000013
(1677654883.411348) can1 133#00000000B6
(1677654883.411384) can1 136#0002000000000039
(1677654883.414380) can1 13A#0000000000000037
(1677654883.414466) can1 4AA#0210010000000000
(1677654883.414472) can1 13F#000000050000003D
(1677654883.414477) can1 17C#0000000010000030
(1677654883.414482) can1 18E#00007A
(1677654883.416100) can1 294#040B0002CF5A001D
(1677654883.417634) can1 21E#03E83745220610
(1677654883.417731) can1 309#0000000000000093
(1677654883.417738) can1 428#01040000521C10
(1677654883.417743) can1 405#000004000000001A
(1677654883.417747) can1 183#0000000C0000103C
(1677654883.419162) can1 143#6B6B00FF
(1677654883.419241) can1 244#0000000136
(1677654883.419248) can1 095#800007F400000026
(1677654883.419252) can1 039#000C
(1677654883.419258) can1 166#D0320036
(1677654883.419285) can1 158#0000000000000037
(1677654883.420678) can1 161#000005500108003A
(1677654883.422236) can1 191#010090A1410021
(1677654883.422528) can1 164#0000C01AA8000022
(1677654883.423804) can1 133#0000000089
(1677654883.426864) can1 136#000200000000000C
(1677654883.426956) can1 13A#000000000000000A
(1677654883.428485) can1 4AB#0210010000000000
(1677654883.428535) can1 13F#0000000500000000
(1677654883.428539) can1 17C#0000000010000003
(1677654883.428541) can1 18E#00004D
(1677654883.428544) can1 1CF#80050000002D
(1677654883.428547) can1 1DC#0200002A
(1677654883.428550) can1 183#0000000900001002
(1677654883.430218) can1 143#6B6B00C2
(1677654883.430307) can1 095#800007F400000035
(1677654883.430315) can1 244#000000015F
(1677654883.430320) can1 1A4#0000000800000001
(1677654883.430326) can1 1AA#7FFF000000006702
(1677654883.431778) can1 1B0#000F0000000148
(1677654883.431825) can1 1D0#000000000000000A
(1677654883.433360) can1 166#D0320009
(1677654883.433401) can1 158#000000000000000A
(1677654883.434847) can1 161#000005500108000D
(1677654883.434901) can1 039#001B
(1677654883.434905) can1 191#010090A1410030
(1677654883.434907) can1 164#0000C01AA8000031
(1677654883.436435) can1 133#0000000098
(1677654883.437965) can1 136#000200000000001B
(1677654883.438050) can1 4AC#0210010000000000
(1677654883.438056) can1 13A#0000000000000019
(1677654883.438061) can1 13F#000000050000001F
(1677654883.438067) can1 17C#0000000010000012
(1677654883.438094) can1 18E#00005C
(1677654883.439496) can1 183#0000000600001014
(1677654883.439569) can1 143#6B6B00D1
(1677654883.439576) can1 095#800007F400000008
(1677654883.439582) can1 244#00000001BC
(1677654883.439588) can1 166#D0320018
(1677654883.439641) can1 158#0000000000000019
(1677654883.441302) can1 161#000005500108001C
(1677654883.441365) can1 191#010090A1410003
(1677654883.443887) can1 164#0000C01AA8000004
(1677654883.444280) can1 133#00000000A7
(1677654883.445588) can1 136#000200000000002A
(1677654883.447382) can1 13A#0000000000000028
(1677654883.447430) can1 13F#000000050000002E
(1677654883.447435) can1 17C#0000000010000021
(1677654883.447438) can1 18E#00006B
(1677654883.448927) can1 4AD#0210010000000000
(1677654883.449006) can1 1CF#80050000003C
(1677654883.449012) can1 1DC#02000039
(1677654883.449016) can1 183#0000000400001025
(1677654883.449021) can1 143#6B6B00E0
(1677654883.449026) can1 039#002A
(1677654883.449030) can1 095#800007F400000017
(1677654883.449034) can1 1A4#0000000800000010
(1677654883.450378) can1 1AA#7FFF000000006810
(1677654883.450426) can1 1B0#000F0000000157
(1677654883.451978) can1 1D0#000000000000000A
(1677654883.452073) can1 244#00000001A2
(1677654883.453705) can1 188#00000000
(1677654883.453750) can1 166#D0320027
(1677654883.455297) can1 158#0000000000000028
(1677654883.455389) can1 161#000005500108002B
(1677654883.455396) can1 191#010090A1410012
(1677654883.455419) can1 164#0000C01AA8000013
(1677654883.456846) can1 133#00000000B6
(1677654883.456937) can1 136#0002000000000039
(1677654883.458208) can1 13A#0000000000000037
(1677654883.458305) can1 13F#000000050000003D
(1677654883.458338) can1 17C#0000000010000030
(1677654883.458344) can1 18E#00007A
(1677654883.458350) can1 4AE#0210010000000000
(1677654883.458355) can1 294#040B0002CF5A002C
(1677654883.459835) can1 21E#03E8374522062F
(1677654883.459892) can1 183#0000000300001035
(1677654883.459896) can1 143#6B6B00FF
(1677654883.461331) can1 095#800007F400000026
(1677654883.461412) can1 244#000000018C
(1677654883.461420) can1 166#D0320036
(1677654883.464529) can1 039#0039
(1677654883.465760) can1 158#0000000000000037
(1677654883.466408) can1 161#000005500108003A
(1677654883.467253) can1 191#010090A1410021
(1677654883.467281) can1 164#0000C01AA8000022
(1677654883.467283) can1 133#0000000089
(1677654883.468907) can1 136#000200000000000C
(1677654883.468993) can1 13A#000000000000000A
(1677654883.469000) can1 13F#0000000500000000
(1677654883.469005) can1 4AF#0210010000000000
(1677654883.469009) can1 17C#0000000010000003
(1677654883.469014) can1 18E#00004D
(1677654883.469019) can1 1CF#80050000000F
(1677654883.470721) can1 1DC#0200000C
(1677654883.470798) can1 183#0000000A00001001
(1677654883.470803) can1 143#6B6B00C2
(1677654883.470807) can1 333#0000000000001E
(1677654883.470811) can1 095#800007F400000035
(1677654883.470815) can1 1A4#000000080000002F
(1677654883.472836) can1 1AA#7FFF00000000682F
(1677654883.472921) can1 1B0#000F0000000166
(1677654883.472928) can1 1D0#000000000000000A
(1677654883.474592) can1 166#D0320009
(1677654883.474690) can1 158#000000000000000A
(1677654883.474696) can1 161#000005500108000D
(1677654883.474701) can1 191#010090A1410030
(1677654883.476151) can1 244#00000001A4
(1677654883.477378) can1 133#0000000098
(1677654883.477882) can1 136#000200000000001B
(1677654883.477963) can1 13A#0000000000000019
(1677654883.477970) can1 13F#000000050000001F
(1677654883.477974) can1 164#0000C01AA8000031
(1677654883.477979) can1 17C#0000000010000012
(1677654883.477983) can1 18E#00005C
(1677654883.479523) can1 4B0#0210010000000000
(1677654883.479619) can1 183#0000000700001013
(1677654883.479626) can1 039#000C
(1677654883.479631) can1 143#6B6B00D1
(1677654883.479636) can1 095#800007F400000008
(1677654883.479641) can1 166#D0320018
(1677654883.481236) can1 158#0000000000000019
(1677654883.481326) can1 161#000005500108001C
(1677654883.481332) can1 191#010090A1410003
(1677654883.483854) can1 164#0000C01AA8000004
(1677654883.486671) can1 133#00000000A7
(1677654883.488235) can1 136#000200000000002A
(1677654883.488324) can1 13A#0000000000000028
(1677654883.488331) can1 13F#000000050000002E
(1677654883.488335) can1 17C#0000000010000021
(1677654883.488341) can1 18E#00006B
(1677654883.488346) can1 1CF#80050000001E
(1677654883.488350) can1 1DC#0200001B
(1677654883.488472) can1 244#000000013D
(1677654883.489903) can1 4B1#0210010000000000
(1677654883.489988) can1 320#000012
(1677654883.489994) can1 324#7465000000000E1A
(1677654883.490000) can1 183#0000000500001024
(1677654883.490004) can1 37C#FD00FD00097F001A
(1677654883.490009) can1 143#6B6B00E0
(1677654883.491502) can1 305#8026
(1677654883.493052) can1 095#800007F400000017
(1677654883.494619) can1 1A4#000000080000003E
(1677654883.494705) can1 1AA#7FFF00000000673F
(1677654883.494711) can1 1B0#000F0000000175
(1677654883.494716) can1 1D0#000000000000000A
(1677654883.494721) can1 166#D0320027
(1677654883.495853) can1 158#0000000000000028
(1677654883.497597) can1 161#000005500108002B
(1677654883.497652) can1 191#010090A1410012
(1677654883.497656) can1 18E#00007A
(1677654883.497660) can1 133#00000000B6
(1677654883.498854) can1 136#0002000000000039
(1677654883.498910) can1 13A#0000000000000037
(1677654883.498914) can1 13F#000000050000003D
(1677654883.498918) can1 164#0000C01AA8000013
(1677654883.498921) can1 17C#0000000010000030
(1677654883.498923) can1 294#040B0002CF5A003B
(1677654883.499430) can1 244#00000001D8
(1677654883.500453) can1 21E#03E8374522063E
(1677654883.500539) can1 039#001B
(1677654883.502206) can1 4B2#0210010000000000
(1677654883.503418) can1 183#0000000B0000103D
(1677654883.506757) can1 143#6B6B00FF
(1677654883.506827) can1 095#800007F400000026
(1677654883.508418) can1 166#D0320036
